#           v(in)      v(out)     iter(0)   
-10.       -10.       -10.        3.        
-8.        -8.        -8.         3.        
-6.        -6.        -6.         3.        
-4.        -4.        -4.         3.        
-2.        -2.        -2.         3.        
 0.         0.         0.         3.        
 2.         2.         2.         3.        
 4.         4.         4.         3.        
 6.         6.         6.         3.        
 8.         8.         8.         3.        
 10.        10.        10.        3.        
#Time       v(in)      v(out)     iter(0)   
 0.         0.         0.         2.        
 241.13n    1.515u     365.22p    15.       
 795.71n    4.9995u    2.1709n    3.        
 1.2338u    7.7521u    4.9625n    3.        
 1.6719u    10.505u    8.9585n    3.        
 6.7192u    42.218u    141.63n    3.        
 17.821u    111.97u    991.21n    3.        
 41.225u    259.02u    5.2594u    3.        
 81.753u    513.67u    20.397u    3.        
 146.86u    922.76u    64.4u      3.        
 211.97u    0.0013319  131.42u    3.        
 340.95u    0.0021422  325.97u    3.        
 469.93u    0.0029526  595.13u    3.        
 698.55u    0.0043891  0.0012262  3.        
 927.17u    0.0058255  0.0020224  3.        
 0.0013073  0.0082137  0.0036185  3.        
 0.0016874  0.010602   0.0054676  3.        
 0.0023181  0.014565   0.0088798  3.        
 0.0029489  0.018527   0.012556   3.        
 0.0040634  0.025528   0.019335   3.        
 0.0051778  0.032528   0.026272   3.        
 0.0075119  0.047181   0.040901   3.        
 0.011215   0.070407   0.064137   3.        
 0.019361   0.12135    0.11511    3.        
 0.039388   0.24496    0.23885    3.        
 0.081262   0.48869    0.48313    3.        
 0.12314    0.69877    0.69424    3.        
 0.18595    0.9201     0.91752    3.        
 0.24876    0.99997    0.99993    3.        
 0.31157    0.92611    0.92843    3.        
 0.40578    0.558      0.56343    3.        
 0.5        63.974n    0.0063975  3.        
Gnucap   System status
iterations: op=0, dc=33, tran=107, fourier=0, total=176
transient timesteps: accepted=32, rejected=4, total=36
nodes: user=2, subckt=0, model=0, total=2
dctran density=100.0%, ac density=100.0%
