pid0a #(.p(.1),.i(100),.d(1m)) dut (.sp(0),.sn(out),.cp(n1),.cn(0));
// pid0a #(.d(1m)) dut (out, 0, n1, 0); 
capacitor #(.c(1u)) c (.p(out),.n(0));
resistor #(.r(1)) r (.p(out),.n(0));
#Time       v(n1)      v(out)     iter(0)    timef(dut._b_ddt_1_p_ddt_1_n) timef(dut._b_idt_0_p_idt_0_n)
 0.         0.         0.         3.         Inf        Inf       
 20.p       10.n       9.9998u    3.         30.p       840.02n   
 30.p       15.n       15.u       3.         Inf        7.1293n   
 2.78n      1.39u      0.0013881  3.         Inf        5.6383n   
 5.53n      2.765u     0.0027574  3.         Inf        473.3u    
 22.26n     11.13u     0.011007   3.         847.08u    809.22u   
 38.99n     19.495u    0.01912    3.         928.81u    0.0013835 
 55.72n     27.86u     0.027099   3.         0.0012529  Inf       
 72.45n     36.225u    0.034945   3.         0.0019723  Inf       
 89.18n     44.59u     0.042661   3.         Inf        0.0014737 
 105.91n    52.955u    0.050249   3.         Inf        0.0016092 
 122.64n    61.32u     0.057711   3.         Inf        0.0016919 
 139.37n    69.685u    0.065049   3.         Inf        0.0012682 
 156.1n     78.05u     0.072265   3.         Inf        0.0014451 
 172.83n    86.415u    0.079362   3.         Inf        Inf       
 189.56n    94.78u     0.086341   3.         Inf        0.0055777 
 206.29n    103.15u    0.093204   3.         Inf        0.0020752 
 223.02n    111.51u    0.099954   3.         Inf        0.0017745 
 249.41n    124.71u    0.11037    3.         Inf        0.0029469 
 275.8n     137.9u     0.12052    3.         Inf        0.0020868 
 302.19n    151.1u     0.13041    3.         Inf        0.0018384 
 328.58n    164.29u    0.14003    3.         Inf        0.0021656 
 354.97n    177.49u    0.14941    3.         0.0021825  0.0047424 
 396.97n    198.49u    0.16383    3.         0.0018261  0.0040276 
 438.97n    219.49u    0.17766    3.         0.0020474  0.0088034 
 480.97n    240.49u    0.19092    3.         0.0021139  0.0053813 
 522.97n    261.48u    0.20364    3.         0.001899   Inf       
 564.97n    282.49u    0.21583    3.         0.0021129  0.0034057 
 631.82n    315.91u    0.23421    3.         0.0035282  0.0032752 
 698.67n    349.34u    0.25141    3.         0.0052883  0.0044139 
 765.52n    382.76u    0.26749    3.         0.0039507  0.0065099 
 832.37n    416.19u    0.28254    3.         0.0040626  0.0067751 
 899.22n    449.61u    0.29661    3.         0.0047717  0.0068764 
 1.0056u    502.81u    0.31716    3.         0.005085   0.0061393 
 1.112u     556.01u    0.33564    3.         0.0062006  0.0091114 
 1.2184u    609.21u    0.35225    3.         0.010928   0.0099002 
 1.3248u    662.41u    0.36718    3.         Inf        0.012593  
 1.4312u    715.61u    0.38061    3.         Inf        0.0095174 
 1.6006u    800.28u    0.39926    3.         Inf        0.010349  
 1.7699u    884.95u    0.415      3.         Inf        0.013226  
 1.9392u    969.62u    0.42828    3.         Inf        0.014001  
 2.1086u    0.0010543  0.4395     3.         Inf        Inf       
 2.2779u    0.001139   0.44896    3.         Inf        0.016547  
 2.5474u    0.0012737  0.46111    3.         Inf        0.021356  
 2.817u     0.0014085  0.47038    3.         Inf        0.032335  
 3.0865u    0.0015432  0.47745    3.         0.022971   0.024567  
 3.356u     0.001678   0.48284    3.         0.016379   0.02418   
 3.6255u    0.0018128  0.48696    3.         0.016807   0.048436  
 4.0545u    0.0020272  0.49163    3.         0.026714   0.031717  
 4.4835u    0.0022417  0.49466    3.         Inf        0.031774  
 4.9124u    0.0024562  0.49663    3.         Inf        0.034158  
 5.3414u    0.0026707  0.49791    3.         Inf        0.034116  
 5.7704u    0.0028852  0.49875    3.         Inf        0.037218  
 6.4531u    0.0032266  0.49954    3.         Inf        0.066495  
 7.1359u    0.0035679  0.49995    3.         Inf        0.099228  
 7.8186u    0.0039093  0.50017    3.         Inf        0.076421  
 8.5014u    0.0042507  0.50029    3.         Inf        0.109     
 9.1842u    0.0045921  0.50037    3.         Inf        0.075919  
 10.271u    0.0051354  0.50045    3.         Inf        0.093972  
 11.358u    0.0056788  0.50052    3.         Inf        0.076566  
 12.444u    0.0062221  0.50057    3.         Inf        0.082671  
 13.531u    0.0067654  0.50063    3.         Inf        0.08005   
 14.618u    0.0073088  0.50069    3.         Inf        0.090991  
 16.347u    0.0081734  0.50077    3.         Inf        0.13164   
 18.076u    0.0090381  0.50086    3.         0.12582    0.18385   
 19.806u    0.0099028  0.50095    3.         0.093995   Inf       
 21.535u    0.010768   0.50104    3.         0.096656   0.23431   
 23.264u    0.011632   0.50113    3.         Inf        0.3108    
 26.017u    0.013008   0.50127    3.         0.13028    0.15989   
 28.769u    0.014384   0.50141    3.         0.2427     0.17368   
 31.521u    0.01576    0.50155    3.         0.19601    0.40369   
 34.273u    0.017137   0.50169    3.         0.25394    0.22228   
 37.025u    0.018513   0.50183    3.         Inf        0.4172    
 41.405u    0.020702   0.50206    3.         0.29738    0.26771   
 45.784u    0.022892   0.50229    3.         0.23445    0.49625   
 50.163u    0.025082   0.50252    3.         0.25884    0.76883   
 54.543u    0.027271   0.50275    3.         0.30467    0.90944   
 58.922u    0.029461   0.50298    3.         0.31262    0.44154   
 65.893u    0.032947   0.50335    3.         0.52695    0.42116   
 72.865u    0.036432   0.50372    3.         0.50881    0.62689   
 79.836u    0.039918   0.5041     3.         0.71601    Inf       
 86.807u    0.043404   0.50447    3.         Inf        1.113     
 93.779u    0.046889   0.50485    3.         Inf        0.72737   
 104.87u    0.052436   0.50546    3.         0.81629    0.73406   
 115.96u    0.057982   0.50608    3.         0.63763    0.92945   
 127.06u    0.063529   0.5067     3.         0.69671    1.0181    
 138.15u    0.069076   0.50733    3.         1.0236     1.0359    
 149.24u    0.074622   0.50796    3.         Inf        Inf       
 166.9u     0.083449   0.50898    3.         1.1987     1.0749    
 184.55u    0.092276   0.51002    3.         0.94507    1.3345    
 202.21u    0.1011     0.51107    3.         1.0434     2.1841    
 219.86u    0.10993    0.51214    3.         1.5473     1.6014    
 237.51u    0.11876    0.51322    3.         1.5877     1.5132    
 265.57u    0.13278    0.51498    3.         1.3423     3.3939    
 293.62u    0.14681    0.51677    3.         1.6361     2.1226    
 321.67u    0.16084    0.5186     3.         2.8825     3.3152    
 349.73u    0.17486    0.52048    3.         Inf        3.1079    
 377.78u    0.18889    0.52239    3.         2.3656     5.0452    
 422.33u    0.21116    0.5255     3.         1.9956     3.601     
 466.87u    0.23344    0.52872    3.         2.4246     10.71     
 511.42u    0.25571    0.53203    3.         4.2509     4.4966    
 555.97u    0.27798    0.53545    3.         Inf        4.359     
 600.52u    0.30026    0.53896    3.         Inf        3.6052    
 671.19u    0.33559    0.54474    3.         Inf        5.0749    
 741.86u    0.37093    0.55076    3.         Inf        6.751     
 812.53u    0.40627    0.55704    3.         6.0314     6.8453    
 883.21u    0.4416     0.56357    3.         4.9223     5.7669    
 953.88u    0.47694    0.57034    3.         Inf        6.0706    
 0.0010656  0.53278    0.58156    3.         5.7837     9.5245    
 0.0011772  0.58862    0.5934     3.         8.2855     9.2847    
 0.0012889  0.64446    0.60586    3.         Inf        9.1471    
 0.0014006  0.7003     0.61895    3.         9.0231     19.154    
 0.0015123  0.75614    0.63266    3.         6.4589     9.1272    
 0.0016891  0.84455    0.65565    3.         6.9218     11.461    
 0.0018659  0.93297    0.6802     3.         8.2285     22.331    
 0.002      1.         0.69985    3.         8.3434     14.627    
 0.002      1.         0.69985    2.         0.0021326  0.057199  
 0.0020044  1.         0.013551   6.         0.0020371  0.0022026 
 0.0020054  1.         0.1428     8.         0.0020165  0.0065977 
 0.0020062  1.         0.17319    2.         Inf        0.12801   
 0.0020067  1.         0.18482    2.         Inf        0.061943  
 0.0020072  1.         0.19154    2.         Inf        0.058495  
 0.0020081  1.         0.19697    2.         Inf        0.1626    
 0.0020089  1.         0.19925    2.         Inf        0.14313   
 0.0020103  1.         0.20068    2.         Inf        0.12854   
 0.0020118  1.         0.20103    2.         Inf        0.22217   
 0.0020145  1.         0.20136    3.         Inf        0.21047   
 0.0020172  1.         0.20162    3.         Inf        0.28196   
 0.0020261  1.         0.20251    3.         Inf        0.58246   
 0.0020475  1.         0.20465    3.         Inf        0.74242   
 0.0021179  1.         0.21169    3.         Inf        2.2911    
 0.0024332  1.         0.24322    3.         Inf        10.492    
 0.0035142  1.         0.35132    3.         Inf        28.585    
 0.006      1.         0.5999     3.         Inf        189.65    
 0.006      1.         0.59988    2.         0.0064988  0.30055   
 0.006      1.         0.59986    2.         0.0064423  0.26715   
 0.0060005  0.99953    0.22088    6.         0.01782    0.0060408 
 0.0060008  0.99919    0.037722   2.         0.018217   0.0076716 
 0.0060012  0.99884   -0.091406   2.         0.025237   0.059732  
 0.0060014  0.99861   -0.1554     2.         0.025964   0.032209  
 0.0060016  0.99838   -0.20613    2.         0.018586   0.023521  
 0.006002   0.998     -0.26774    2.         0.018812   0.024094  
 0.0060024  0.99762   -0.30977    2.         0.026775   0.031972  
 0.0060028  0.99724   -0.33844    2.         Inf        0.04191   
 0.0060034  0.99662   -0.36782    2.         Inf        0.04584   
 0.006004   0.99599   -0.38318    2.         Inf        0.053134  
 0.0060046  0.99536   -0.39121    2.         Inf        Inf       
 0.0060057  0.9943    -0.39732    3.         Inf        0.094738  
 0.0060068  0.99323   -0.39918    3.         Inf        0.074794  
 0.0060087  0.99135   -0.39998    3.         Inf        0.12932   
 0.0060105  0.98947   -0.4        3.         0.13601    0.19951   
 0.0060148  0.98518   -0.40001    3.         0.13087    1.848     
 0.0060223  0.97767   -0.40002    3.         0.18841    0.40313   
 0.006056   0.94396   -0.40015    3.         0.53193    0.79446   
 0.0062636  0.73638   -0.40345    3.         11.27      2.5821    
 0.0064712  0.52881   -0.41105    3.         9.9495     9.118     
 0.0066788  0.32123   -0.42297    3.         10.481     60.156    
 0.0068863  0.11365   -0.43919    3.         9.5631     Inf       
 0.007      0.        -0.4499     3.         3.1208     12.634    
 0.007      0.        -0.44988    2.         0.0070002  0.072508  
 0.007      0.        -0.44986    2.         0.0070001  0.0072596 
 0.0070001  0.        -0.33504    2.         Inf        Inf       
 0.0070004  0.        -0.10483    2.         Inf        Inf       
 0.0070007  0.         0.0655     2.         Inf        Inf       
 0.007001   0.         0.19152    2.         Inf        Inf       
 0.0070013  0.         0.28477    2.         Inf        Inf       
 0.0070016  0.         0.35376    2.         Inf        Inf       
 0.0070021  0.         0.42627    2.         Inf        Inf       
 0.0070025  0.         0.47199    2.         Inf        Inf       
 0.007003   0.         0.50082    2.         Inf        Inf       
 0.0070037  0.         0.52723    2.         Inf        Inf       
 0.0070044  0.         0.53945    2.         Inf        Inf       
 0.0070056  0.         0.54706    2.         Inf        Inf       
 0.0070067  0.         0.54918    2.         Inf        Inf       
 0.0070086  0.         0.54999    2.         Inf        Inf       
 0.0070106  0.         0.55       2.         Inf        Inf       
 0.0070153  0.         0.55       2.         Inf        Inf       
 0.0070238  0.         0.55       3.         Inf        Inf       
 0.0070718  0.         0.55       3.         Inf        Inf       
 0.0074378  0.         0.55       3.         Inf        Inf       
 0.0087189  0.         0.55       3.         Inf        Inf       
 0.01       0.         0.55       3.         Inf        Inf       
Gnucap   System status
iterations: op=0, dc=0, tran=519, fourier=0, total=705
transient timesteps: accepted=182, rejected=4, total=186
nodes: user=2, subckt=0, model=0, total=2
dctran density=100.0%, ac density=100.0%
#Time       v(n1)      v(out)     iter(0)    timef(dut._b_ddt_1_p_ddt_1_n) timef(dut._b_idt_0_p_idt_0_n) timef(dut._b_sp_sn)
 0.         0.         0.         3.         Inf        Inf        Inf       
 20.p       10.n       9.9998u    3.         30.p       120.02n    Inf       
 30.p       15.n       15.u       3.         Inf        2.7133n    Inf       
 1.07n      535.n      534.71u    3.         Inf        2.1569n    Inf       
 2.11n      1.055u     0.0010539  3.         Inf        Inf        Inf       
 34.38n     17.19u     0.016899   3.         Inf        823.32u    Inf       
 100.09n    50.045u    0.047634   3.         Inf        0.002389   Inf       
 206.02n    103.01u    0.093144   3.         Inf        Inf        Inf       
 311.95n    155.98u    0.13408    3.         Inf        0.0071874  Inf       
 472.16n    236.08u    0.18836    3.         Inf        0.0082919  Inf       
 632.37n    316.19u    0.23459    3.         Inf        0.0092101  Inf       
 792.58n    396.29u    0.27396    3.         Inf        0.0088442  Inf       
 952.79n    476.4u     0.30749    3.         0.00761    0.0072109  Inf       
 1.199u     599.49u    0.3497     3.         0.0065621  0.0081095  Inf       
 1.4451u    722.58u    0.38266    3.         0.0080379  0.026559   Inf       
 1.6913u    845.66u    0.4084     3.         0.0097391  0.030738   Inf       
 1.9375u    968.75u    0.4285     3.         0.0080886  0.012613   Inf       
 2.1837u    0.0010918  0.44419    3.         0.0084178  0.010248   Inf       
 2.5844u    0.0012922  0.46286    3.         0.01368    0.011496   Inf       
 2.9851u    0.0014925  0.47531    3.         Inf        0.029498   Inf       
 3.3858u    0.0016929  0.4836     3.         Inf        0.014513   Inf       
 3.7865u    0.0018932  0.48914    3.         Inf        0.013564   Inf       
 4.435u     0.0022175  0.49456    3.         Inf        0.018023   Inf       
 5.0835u    0.0025418  0.49734    3.         Inf        0.034261   Inf       
 5.732u     0.002866   0.49878    3.         0.027904   Inf        Inf       
 6.813u     0.0034065  0.49986    3.         0.024347   0.043067   Inf       
 7.8939u    0.003947   0.50022    3.         0.030409   0.050231   Inf       
 9.8188u    0.0049094  0.50044    3.         0.060673   0.076712   Inf       
 11.744u    0.0058718  0.50054    3.         Inf        0.21065    Inf       
 16.213u    0.0081064  0.50077    3.         Inf        0.12608    Inf       
 24.143u    0.012071   0.50117    3.         Inf        0.26745    Inf       
 66.058u    0.033029   0.50336    3.         1.0241     0.9339     Inf       
 386.51u    0.19325    0.52299    3.         3.2667     6.3286     Inf       
 0.002      1.         0.69985    3.         16.678     47.716     Inf       
 0.002      1.         0.69985    2.         0.0022923  0.12362    Inf       
 0.0020065  1.        -0.063636   6.         0.0020503  0.0022419  Inf       
 0.002007   1.         0.047615   8.         0.0020142  0.0049845  Inf       
 0.0020073  1.         0.090344   2.         Inf        0.038872   Inf       
 0.0020076  1.         0.11164    2.         Inf        0.015253   Inf       
 0.0020078  1.         0.12883    2.         Inf        0.01525    Inf       
 0.002008   1.         0.14271    2.         Inf        Inf        Inf       
 0.0020082  1.         0.15392    2.         Inf        0.020939   Inf       
 0.0020084  1.         0.16297    2.         Inf        0.017035   Inf       
 0.0020087  1.         0.17378    2.         Inf        0.02324    Inf       
 0.0020091  1.         0.18152    2.         Inf        0.018066   Inf       
 0.0020094  1.         0.18706    2.         Inf        0.025466   Inf       
 0.0020097  1.         0.19103    2.         Inf        0.025469   Inf       
 0.0020103  1.         0.1951     2.         Inf        0.02076    Inf       
 0.0020108  1.         0.19753    2.         Inf        0.019133   Inf       
 0.0020113  1.         0.19899    2.         Inf        0.024771   Inf       
 0.0020121  1.         0.20021    2.         Inf        0.036758   Inf       
 0.0020128  1.         0.20079    2.         Inf        0.036643   Inf       
 0.0020141  1.         0.20121    2.         Inf        0.055825   Inf       
 0.0020153  1.         0.20141    2.         Inf        0.068649   Inf       
 0.0020175  1.         0.20165    3.         Inf        0.11262    Inf       
 0.0020197  1.         0.20187    3.         Inf        0.11993    Inf       
 0.0020255  1.         0.20245    3.         Inf        0.18014    Inf       
 0.002037   1.         0.2036     3.         Inf        0.21612    Inf       
 0.0020868  1.         0.20858    3.         Inf        0.67696    Inf       
 0.0023912  1.         0.23902    3.         Inf        2.8575     Inf       
 0.0036593  1.         0.36583    3.         Inf        16.785     Inf       
 0.006      1.         0.5999     3.         Inf        72.672     Inf       
 0.006      1.         0.59988    2.         0.0062566  0.15751    Inf       
 0.006      1.         0.59986    2.         0.0062221  0.13715    Inf       
 0.0060002  0.99979    0.41105    6.         0.0087554  0.0060163  Inf       
 0.0060004  0.99958    0.25789    2.         0.0090325  0.0065344  Inf       
 0.0060006  0.99937    0.13365    2.         0.011006   0.014561   Inf       
 0.0060008  0.99921    0.054167   2.         Inf        0.013218   Inf       
 0.0060009  0.99905   -0.013479   2.         0.012327   0.012954   Inf       
 0.0060011  0.99895   -0.052674   2.         0.0097091  0.013375   Inf       
 0.0060012  0.99884   -0.087894   2.         0.0092356  0.012458   Inf       
 0.0060013  0.99873   -0.11954    2.         0.01007    0.012697   Inf       
 0.0060014  0.99857   -0.16183    2.         Inf        0.011329   Inf       
 0.0060016  0.99841   -0.19775    2.         0.011966   0.012399   Inf       
 0.0060018  0.99824   -0.22825    2.         0.010309   0.012701   Inf       
 0.0060019  0.99808   -0.25415    2.         0.010309   0.011319   Inf       
 0.0060022  0.99783   -0.28691    2.         0.014309   0.012155   Inf       
 0.0060024  0.99757   -0.31231    2.         0.012262   0.015382   Inf       
 0.0060027  0.99732   -0.33201    2.         0.012683   0.017618   Inf       
 0.0060029  0.99707   -0.34728    2.         0.015637   0.0164     Inf       
 0.0060032  0.99681   -0.35912    2.         Inf        0.014955   Inf       
 0.0060036  0.9964    -0.3731     2.         Inf        0.015693   Inf       
 0.006004   0.99599   -0.3823     2.         Inf        0.021889   Inf       
 0.0060044  0.99558   -0.38836    2.         Inf        0.021609   Inf       
 0.0060048  0.99516   -0.39234    2.         Inf        0.021609   Inf       
 0.0060055  0.99449   -0.3962     2.         Inf        0.178      Inf       
 0.0060062  0.99381   -0.39812    2.         Inf        0.028066   Inf       
 0.0060069  0.99314   -0.39907    2.         Inf        0.029865   Inf       
 0.006008   0.992     -0.39975    3.         Inf        0.037078   Inf       
 0.0060091  0.99085   -0.39993    3.         0.047377   0.044862   Inf       
 0.0060112  0.98876   -0.40001    3.         0.042839   0.061737   Inf       
