pid0 #(.p(.1),.i(100),.d(1m)) dut (.sp(0),.sn(out),.cp(n1),.cn(0));
// pid0 #(.d(1m)) dut (out, 0, n1, 0); 
capacitor #(.c(1u)) c (.p(out),.n(0));
resistor #(.r(1)) r (.p(out),.n(0));
#Time       v(n1)      v(out)     iter(0)    timef(dut._b_ddt_1_p_ddt_1_n) timef(dut._b_idt_0_p_idt_0_n)
 0.         0.         0.         3.         Inf        Inf       
 20.p       10.n       9.9998u    3.         30.p       84.u      
 30.p       15.n       15.u       3.         Inf        71.023n   
 2.78n      1.39u      0.0013881  3.         Inf        16.047n   
 9.65n      4.825u     0.0048018  3.         301.93u    0.0025099 
 26.38n     13.19u     0.013018   3.         514.76u    0.0050632 
 43.11n     21.555u    0.021097   3.         923.77u    0.0036758 
 59.84n     29.92u     0.029043   3.         0.0018359  0.0049815 
 76.57n     38.285u    0.036857   3.         0.0017412  0.0039538 
 93.3n      46.65u     0.044541   3.         0.0010432  0.003281  
 110.03n    55.015u    0.052098   3.         866.41u    0.0028222 
 126.76n    63.38u     0.059529   3.         978.4u     0.0021466 
 143.49n    71.745u    0.066837   3.         214.86     0.001671  
 160.22n    80.11u     0.074024   3.         0.0016792  0.002275  
 176.95n    88.475u    0.081092   3.         Inf        0.0032811 
 193.68n    96.84u     0.088042   3.         Inf        0.0019189 
 210.41n    105.21u    0.094877   3.         Inf        0.0021382 
 227.14n    113.57u    0.1016     3.         0.0014973  0.0017754 
 254.02n    127.01u    0.11217    3.         0.0014286  0.0019085 
 280.9n     140.45u    0.12245    3.         0.0018321  0.0020376 
 307.78n    153.89u    0.13247    3.         0.001826   0.0019868 
 334.66n    167.33u    0.14222    3.         0.0017061  0.0021309 
 361.54n    180.77u    0.15171    3.         0.0017506  0.0026347 
 404.32n    202.16u    0.16629    3.         0.0021583  0.0046771 
 447.1n     223.55u    0.18027    3.         0.0035072  0.0040081 
 489.88n    244.94u    0.19367    3.         Inf        0.0048625 
 532.66n    266.33u    0.2065     3.         0.0040311  0.0044767 
 575.44n    287.72u    0.21879    3.         0.0028681  0.0045386 
 643.53n    321.77u    0.23731    3.         0.0030739  0.0040164 
 711.62n    355.81u    0.25461    3.         0.0038616  0.0053975 
 779.71n    389.86u    0.27077    3.         0.0055069  0.0103    
 847.8n     423.9u     0.28587    3.         0.0047566  0.0080247 
 915.89n    457.95u    0.29997    3.         0.0038049  0.014447  
 1.0243u    512.13u    0.32054    3.         0.0045831  0.012296  
 1.1326u    566.32u    0.33899    3.         0.005929   0.0099279 
 1.241u     620.5u     0.35555    3.         0.0082769  0.012079  
 1.3494u    674.69u    0.37041    3.         0.0090129  0.009393  
 1.4577u    728.87u    0.38374    3.         0.0071937  0.013321  
 1.6302u    815.11u    0.40221    3.         0.0086413  0.016986  
 1.8027u    901.35u    0.41775    3.         0.01105    0.015368  
 1.9752u    987.59u    0.43083    3.         0.012545   0.014417  
 2.1477u    0.0010738  0.44183    3.         0.0129     0.014374  
 2.3201u    0.0011601  0.45108    3.         0.011564   0.024984  
 2.5947u    0.0012973  0.46292    3.         0.012306   0.017314  
 2.8692u    0.0014346  0.4719     3.         0.02466    0.047104  
 3.1437u    0.0015718  0.47872    3.         0.016226   0.023629  
 3.4182u    0.0017091  0.4839     3.         0.01942    0.024986  
 3.6927u    0.0018464  0.48783    3.         0.023936   0.027167  
 4.1297u    0.0020648  0.49226    3.         0.028067   0.032383  
 4.5666u    0.0022833  0.49512    3.         0.036661   0.036044  
 5.0035u    0.0025018  0.49695    3.         0.042807   0.060782  
 5.4404u    0.0027202  0.49814    3.         Inf        0.036788  
 5.8773u    0.0029387  0.49891    3.         0.035851   0.059862  
 6.5727u    0.0032864  0.49963    3.         0.02963    0.047898  
 7.2681u    0.0036341  0.5        3.         0.031725   0.085541  
 7.9635u    0.0039818  0.5002     3.         0.040774   0.0986    
 8.6589u    0.0043295  0.50031    3.         0.11566    0.12054   
 9.3543u    0.0046771  0.50038    3.         0.065315   0.099249  
 10.461u    0.0052305  0.50047    3.         0.071305   0.08342   
 11.568u    0.0057839  0.50053    3.         0.064218   0.070823  
 12.675u    0.0063373  0.50059    3.         0.072594   0.078279  
 13.781u    0.0068906  0.50064    3.         0.066209   0.089055  
 14.888u    0.007444   0.5007     3.         0.062212   0.14794   
 16.649u    0.0083247  0.50079    3.         0.088906   0.32373   
 18.411u    0.0092054  0.50088    3.         0.11949    0.20957   
 20.172u    0.010086   0.50097    3.         0.13698    0.40454   
 21.933u    0.010967   0.50106    3.         0.11285    0.15385   
 23.695u    0.011847   0.50115    3.         0.085491   0.13282   
 26.498u    0.013249   0.50129    3.         0.10419    0.28355   
 29.301u    0.014651   0.50144    3.         0.25829    0.23127   
 32.104u    0.016052   0.50158    3.         0.25688    0.22641   
 34.907u    0.017454   0.50172    3.         0.26415    0.21616   
 37.71u     0.018855   0.50187    3.         0.18794    0.37928   
 42.172u    0.021086   0.5021     3.         0.22249    0.43939   
 46.633u    0.023317   0.50233    3.         0.30413    0.44354   
 51.095u    0.025547   0.50257    3.         0.29944    0.67491   
 55.556u    0.027778   0.5028     3.         0.31562    0.4523    
 60.017u    0.030009   0.50304    3.         0.21103    0.44153   
 67.117u    0.033559   0.50342    3.         0.27341    0.44197   
 74.217u    0.037109   0.50379    3.         0.60652    0.44784   
 81.317u    0.040659   0.50418    3.         0.56278    0.59834   
 88.417u    0.044209   0.50456    3.         0.57871    1.3159    
 95.517u    0.047759   0.50495    3.         0.47132    0.77717   
 106.81u    0.053405   0.50557    3.         0.62712    0.77159   
 118.1u     0.059052   0.5062     3.         1.1007     1.3442    
 129.4u     0.064699   0.50683    3.         0.72513    1.1256    
 140.69u    0.070346   0.50747    3.         0.68104    0.8855    
 151.99u    0.075993   0.50812    3.         0.8804     1.1126    
 169.96u    0.084978   0.50916    3.         1.2108     1.7938    
 187.93u    0.093963   0.51022    3.         1.0801     1.3025    
 205.9u     0.10295    0.51129    3.         1.2211     1.5542    
 223.87u    0.11193    0.51239    3.         1.6452     2.8753    
 241.84u    0.12092    0.51349    3.         1.5672     2.2305    
 270.37u    0.13519    0.51528    3.         1.4449     3.751     
 298.9u     0.14945    0.51711    3.         1.6453     3.8926    
 327.44u    0.16372    0.51899    3.         1.7963     3.0986    
 355.97u    0.17798    0.5209     3.         1.8471     2.6985    
 384.5u     0.19225    0.52285    3.         1.8952     4.5093    
 429.86u    0.21493    0.52604    3.         2.4884     3.944     
 475.21u    0.23761    0.52933    3.         4.7025     7.4566    
 520.57u    0.26029    0.53273    3.         2.8841     7.4464    
 565.93u    0.28296    0.53622    3.         2.6945     5.2082    
 611.28u    0.30564    0.53983    3.         3.4831     10.779    
 683.5u     0.34175    0.54577    3.         4.9878     6.9443    
 755.72u    0.37786    0.55198    3.         4.3998     5.2747    
 827.95u    0.41397    0.55844    3.         4.849      7.7048    
 900.17u    0.45008    0.56517    3.         6.2819     Inf       
 972.39u    0.48619    0.57216    3.         6.4457     12.17     
 0.0010867  0.54333    0.58375    3.         5.5854     8.7593    
 0.0012009  0.60047    0.59599    3.         5.9502     7.5741    
 0.0013152  0.6576     0.60889    3.         6.7115     8.8057    
 0.0014295  0.71474    0.62244    3.         Inf        10.774    
 0.0015438  0.77188    0.63664    3.         6.6363     14.358    
 0.0017237  0.86184    0.66032    3.         7.5307     42.121    
 0.0019036  0.9518     0.68563    3.         12.692     20.955    
 0.002      1.         0.69985    3.         21.795     16.617    
 0.002      1.         0.69985    2.         0.0021143  7.8555    
 0.0020038  1.         0.045505   6.         0.0020319  0.0021817 
 0.0020052  1.         0.1737     6.         0.0020155  Inf       
 0.002006   1.         0.18833    2.         Inf        Inf       
 0.0020065  1.         0.1938     2.         Inf        Inf       
 0.0020071  1.         0.19686    2.         Inf        Inf       
 0.0020082  1.         0.19964    2.         Inf        Inf       
 0.0020093  1.         0.20052    2.         Inf        Inf       
 0.0020113  1.         0.20104    3.         Inf        Inf       
 0.0020134  1.         0.20124    3.         Inf        Inf       
 0.0020182  1.         0.20172    3.         Inf        Inf       
 0.0020268  1.         0.20258    3.         Inf        Inf       
 0.0020826  1.         0.20816    3.         Inf        Inf       
 0.0026481  1.         0.26471    3.         Inf        Inf       
 0.006      1.         0.5999     3.         Inf        Inf       
 0.006      1.         0.59988    2.         0.0065686  Inf       
 0.006      1.         0.59986    2.         0.006665   0.0066004 
 0.0060005  0.99951    0.20724    6.         0.0060372  0.0060393 
 0.0060008  0.99916    0.027592   2.         0.0071822  0.0072893 
 0.0060012  0.99882   -0.098911   2.         0.022836   0.043682  
 0.0060014  0.99858   -0.16289    2.         0.055971   0.03101   
 0.0060017  0.99834   -0.21327    2.         0.025168   0.023111  
 0.006002   0.99796   -0.27374    2.         0.026993   0.024086  
 0.0060024  0.99757   -0.31463    2.         0.034314   0.030893  
 0.0060028  0.99718   -0.34228    2.         0.035931   0.036399  
 0.0060035  0.99654   -0.37025    2.         0.049587   0.044485  
 0.0060041  0.9959    -0.38466    2.         0.054833   0.063286  
 0.0060047  0.99526   -0.3921     2.         0.10759    0.056156  
 0.0060058  0.99417   -0.39769    3.         0.048585   0.057937  
 0.0060069  0.99307   -0.39933    3.         0.051944   0.076161  
 0.0060089  0.99112   -0.4        3.         0.074541   0.17708   
 0.0060108  0.98916   -0.4        3.         0.11623    0.14145   
 0.0060154  0.98458   -0.40001    3.         0.19348    0.1902    
 0.0060236  0.97638   -0.40003    3.         0.31011    0.34738   
 0.0060766  0.92336   -0.40029    3.         0.94366    1.1785    
 0.0063569  0.64312   -0.40633    3.         5.1496     4.1958    
 0.0066371  0.36288   -0.42023    3.         14.235     11.805    
 0.0069174  0.082641  -0.44199    3.         13.814     65.779    
 0.007      0.        -0.4499     3.         2.9688     27.483    
 0.007      0.        -0.44988    2.         0.007      0.06835   
 0.007      0.        -0.44986    2.         0.007      0.0072335 
 0.007      0.        -0.44006    2.         Inf        Inf       
 0.0070003  0.        -0.18641    2.         Inf        Inf       
 0.0070006  0.         0.0022485  2.         Inf        Inf       
 0.0070009  0.         0.14258    2.         Inf        Inf       
 0.0070012  0.         0.24696    2.         Inf        Inf       
 0.0070015  0.         0.32459    2.         Inf        Inf       
 0.0070018  0.         0.38234    2.         Inf        Inf       
 0.0070023  0.         0.44852    2.         Inf        Inf       
 0.0070028  0.         0.48857    2.         Inf        Inf       
 0.0070032  0.         0.51282    2.         Inf        Inf       
 0.007004   0.         0.53391    2.         Inf        Inf       
 0.0070048  0.         0.54304    2.         Inf        Inf       
 0.0070061  0.         0.54839    2.         Inf        Inf       
 0.0070073  0.         0.54963    2.         Inf        Inf       
 0.0070096  0.         0.55002    2.         Inf        Inf       
 0.0070118  0.         0.55       2.         Inf        Inf       
 0.0070179  0.         0.55       2.         Inf        Inf       
 0.0070303  0.         0.55       3.         Inf        Inf       
 0.0070798  0.         0.55       3.         Inf        Inf       
 0.0073453  0.         0.55       3.         Inf        Inf       
 0.0082302  0.         0.55       3.         Inf        Inf       
 0.01       0.         0.55       3.         Inf        Inf       
Gnucap   System status
iterations: op=0, dc=0, tran=509, fourier=0, total=691
transient timesteps: accepted=179, rejected=3, total=182
nodes: user=2, subckt=0, model=0, total=2
dctran density=100.0%, ac density=100.0%
#Time       v(n1)      v(out)     iter(0)    timef(dut._b_ddt_1_p_ddt_1_n) timef(dut._b_idt_0_p_idt_0_n) timef(dut._b_sp_sn)
 0.         0.         0.         3.         Inf        Inf        Inf       
 20.p       10.n       9.9998u    3.         30.p       12.u       Inf       
 30.p       15.n       15.u       3.         Inf        26.863n    Inf       
 1.07n      535.n      534.71u    3.         Inf        6.1149n    Inf       
 2.97n      1.485u     0.0014828  3.         76.813u    884.49u    Inf       
 36.2n      18.1u      0.017778   3.         407.64u    0.0029416  Inf       
 103.56n    51.78u     0.049202   3.         0.0018432  Inf        Inf       
 210.61n    105.31u    0.095009   3.         0.0025388  0.0034345  Inf       
 317.66n    158.83u    0.13616    3.         0.0045055  0.0035683  Inf       
 478.78n    239.39u    0.19042    3.         Inf        0.0044654  Inf       
 639.9n     319.95u    0.23658    3.         Inf        0.0053679  Inf       
 801.02n    400.51u    0.27586    3.         Inf        0.0065982  Inf       
 962.14n    481.07u    0.30929    3.         Inf        0.0086898  Inf       
 1.2095u    604.73u    0.35128    3.         0.011818   0.019425   Inf       
 1.4568u    728.39u    0.38403    3.         0.010783   0.01452    Inf       
 1.7041u    852.05u    0.40957    3.         0.010325   0.013333   Inf       
 1.9514u    975.71u    0.42949    3.         0.0083063  0.010497   Inf       
 2.1987u    0.0010994  0.44504    3.         0.0077948  0.010809   Inf       
 2.6015u    0.0013007  0.4635     3.         0.0092541  0.013995   Inf       
 3.0042u    0.0015021  0.47578    3.         0.010726   0.020296   Inf       
 3.4069u    0.0017034  0.48395    3.         0.011538   Inf        Inf       
 3.8096u    0.0019048  0.48939    3.         0.015088   0.020101   Inf       
 4.4625u    0.0022313  0.49472    3.         0.028918   0.029456   Inf       
 5.1154u    0.0025577  0.49744    3.         0.10275    0.033463   Inf       
 5.7683u    0.0028842  0.49883    3.         0.03511    0.045722   Inf       
 6.8597u    0.0034298  0.49988    3.         0.050159   0.054895   Inf       
 7.951u     0.0039755  0.50023    3.         0.075719   0.07333    Inf       
 9.9029u    0.0049515  0.50045    3.         0.05077    0.061288   Inf       
 11.855u    0.0059274  0.50055    3.         0.062115   0.11114    Inf       
 16.43u     0.0082151  0.50078    3.         0.083621   0.23767    Inf       
 24.62u     0.01231    0.50119    3.         0.13598    0.25934    Inf       
 75.257u    0.037628   0.50385    3.         0.61689    1.8487     Inf       
 547.86u    0.27393    0.53482    3.         5.1359     11.196     Inf       
 0.002      1.         0.69985    3.         22.755     Inf        Inf       
 0.002      1.         0.69985    2.         0.0022817  35.61      Inf       
 0.0020062  1.        -0.055454   6.         0.0020479  0.0022335  Inf       
 0.0020067  1.         0.054524   8.         0.0020137  Inf        Inf       
 0.002007   1.         0.092838   2.         0.14042    Inf        Inf       
 0.0020073  1.         0.11361    2.         Inf        Inf        Inf       
 0.0020075  1.         0.13039    2.         Inf        Inf        Inf       
 0.0020077  1.         0.14394    2.         Inf        Inf        Inf       
 0.0020079  1.         0.15488    2.         Inf        Inf        Inf       
 0.0020081  1.         0.16372    2.         Inf        Inf        Inf       
 0.0020084  1.         0.17439    2.         Inf        Inf        Inf       
 0.0020088  1.         0.182      2.         Inf        Inf        Inf       
 0.0020091  1.         0.18744    2.         Inf        Inf        Inf       
 0.0020095  1.         0.19132    2.         Inf        Inf        Inf       
 0.00201    1.         0.19529    2.         Inf        Inf        Inf       
 0.0020105  1.         0.19765    2.         Inf        Inf        Inf       
 0.002011   1.         0.19906    2.         Inf        Inf        Inf       
 0.0020118  1.         0.20024    2.         Inf        Inf        Inf       
 0.0020126  1.         0.2008     2.         Inf        Inf        Inf       
 0.0020138  1.         0.2012     2.         Inf        Inf        Inf       
 0.0020151  1.         0.20139    2.         Inf        Inf        Inf       
 0.0020173  1.         0.20163    3.         Inf        Inf        Inf       
 0.0020196  1.         0.20186    3.         Inf        Inf        Inf       
 0.0020257  1.         0.20247    3.         Inf        Inf        Inf       
 0.0020381  1.         0.20371    3.         Inf        Inf        Inf       
 0.0020878  1.         0.20868    3.         Inf        Inf        Inf       
 0.0023704  1.         0.23694    3.         Inf        Inf        Inf       
 0.0034604  1.         0.34594    3.         Inf        35.108     Inf       
 0.006      1.         0.5999     3.         Inf        55.99      Inf       
 0.006      1.         0.59988    2.         0.0062642  84.034     Inf       
 0.006      1.         0.59986    2.         0.0062711  0.0062861  Inf       
 0.0060002  0.99979    0.41037    6.         0.0060147  0.0060155  Inf       
 0.0060004  0.99958    0.25678    2.         0.0063704  0.0064037  Inf       
 0.0060006  0.99937    0.13231    2.         0.010688   0.10557    Inf       
 0.0060008  0.99921    0.053102   2.         0.014378   0.015196   Inf       
 0.0060009  0.99905   -0.014319   2.         0.018538   0.017149   Inf       
 0.0060011  0.99894   -0.053199   2.         0.013059   0.015866   Inf       
 0.0060012  0.99884   -0.08816    2.         0.010983   0.011967   Inf       
 0.0060013  0.99873   -0.1196     2.         0.0096657  0.010363   Inf       
 0.0060014  0.99857   -0.1619     2.         0.0098137  0.010894   Inf       
 0.0060016  0.99841   -0.19783    2.         0.011571   0.014101   Inf       
 0.0060018  0.99824   -0.22833    2.         0.013339   0.067769   Inf       
 0.0060019  0.99808   -0.25423    2.         0.013771   0.24928    Inf       
 0.0060022  0.99783   -0.28698    2.         0.013657   0.016224   Inf       
 0.0060024  0.99757   -0.31237    2.         0.013294   0.017271   Inf       
 0.0060027  0.99732   -0.33206    2.         0.018048   Inf        Inf       
 0.0060029  0.99707   -0.34732    2.         0.018049   Inf        Inf       
 0.0060032  0.99681   -0.35916    2.         0.015882   0.076491   Inf       
 0.0060036  0.9964    -0.37313    2.         0.020103   0.023976   Inf       
 0.006004   0.99599   -0.38232    2.         0.032801   0.024054   Inf       
 0.0060044  0.99558   -0.38837    2.         0.02366    0.022909   Inf       
 0.0060048  0.99516   -0.39235    2.         0.019092   0.022905   Inf       
 0.0060055  0.99449   -0.39621    2.         0.020342   0.040458   Inf       
 0.0060062  0.99381   -0.39812    2.         0.029289   0.031415   Inf       
 0.0060069  0.99314   -0.39907    2.         0.034863   0.12824    Inf       
 0.006008   0.99199   -0.39975    3.         0.03428    0.044459   Inf       
 0.0060091  0.99085   -0.39993    3.         0.047472   0.052846   Inf       
 0.0060112  0.98876   -0.40001    3.         0.078148   0.083501   Inf       
 0.0060133  0.98666   -0.40001    3.         0.07836    0.10143    Inf       
 0.0060185  0.98151   -0.40002    3.         0.11554    0.12536    Inf       
 0.0060281  0.9719    -0.40004    3.         0.25688    0.39961    Inf       
