pid2 #(.p(.1),.i(100),.d(1m)) dut (.sp(0),.sn(out),.cp(n1),.cn(0));
// pid2 #(.d(1m)) dut (out, 0, n1, 0); 
capacitor #(.c(1u)) c (.p(out),.n(0));
resistor #(.r(1)) r (.p(out),.n(0));
#Time       v(n1)      v(out)     iter(0)    timef(dut.ddt_1) timef(dut.idt_0) timef(dut._b_sp_sn)
 0.         0.         0.         3.         Inf        Inf        Inf       
 20.p       10.n       9.9998u    3.         30.p       12.u       Inf       
 31.p       15.5n      15.5u      3.         159.25u    26.038n    Inf       
 1.0549n    527.47n    527.2u     3.         6.6879u    6.1313n    Inf       
 2.959n     1.4795u    0.0014773  3.         45.271u    883.39u    Inf       
 36.08n     18.04u     0.01772    3.         318.02u    0.0020373  Inf       
 103.38n    51.688u    0.049119   3.         0.0021551  0.0033021  Inf       
 210.33n    105.17u    0.094897   3.         0.0036566  0.0034301  Inf       
 317.29n    158.65u    0.13603    3.         0.0047035  0.0062917  Inf       
 478.35n    239.17u    0.19028    3.         0.005726   0.0072268  Inf       
 639.4n     319.7u     0.23645    3.         0.0056986  0.0060414  Inf       
 800.46n    400.23u    0.27574    3.         0.0056744  0.0076857  Inf       
 961.52n    480.76u    0.30917    3.         0.0060321  0.0095589  Inf       
 1.2088u    604.38u    0.35117    3.         0.0064299  0.0081546  Inf       
 1.456u     728.u      0.38394    3.         0.0085433  0.0081016  Inf       
 1.7032u    851.62u    0.40949    3.         0.0090166  0.0093726  Inf       
 1.9505u    975.23u    0.42943    3.         0.0094335  0.018378   Inf       
 2.1977u    0.0010989  0.44498    3.         0.0098165  0.025072   Inf       
 2.6003u    0.0013001  0.46346    3.         0.011062   0.017778   Inf       
 3.0029u    0.0015014  0.47575    3.         0.016484   Inf        Inf       
 3.4055u    0.0017027  0.48393    3.         0.017997   0.030143   Inf       
 3.808u     0.001904   0.48938    3.         0.01868    0.018719   Inf       
 4.4607u    0.0022303  0.49471    3.         0.019186   0.021146   Inf       
 5.1133u    0.0025566  0.49743    3.         0.057552   0.031151   Inf       
 5.7659u    0.002883   0.49883    3.         0.035095   0.031989   Inf       
 6.8565u    0.0034283  0.49988    3.         0.039791   0.033657   Inf       
 7.9471u    0.0039736  0.50023    3.         0.037044   0.055934   Inf       
 9.8972u    0.0049486  0.50045    3.         0.051785   0.1527     Inf       
 11.847u    0.0059236  0.50055    3.         0.06371    0.1155     Inf       
 16.416u    0.0082082  0.50078    3.         0.093733   0.15896    Inf       
 24.586u    0.012293   0.50119    3.         0.19043    0.23526    Inf       
 74.463u    0.037232   0.50381    3.         Inf        1.006      Inf       
 525.62u    0.26281    0.53311    3.         Inf        13.527     Inf       
 0.002      1.         0.69985    3.         Inf        41.117     Inf       
 0.002      1.         0.69985    2.         0.0022841  0.48625    Inf       
 0.002      1.         0.69984    2.         0.0020008  0.0022276  Inf       
 0.002      1.         0.69943    6.         0.002      Inf        Inf       
 0.002      1.         0.69914    2.         Inf        Inf        Inf       
 0.002      1.         0.69601    2.         Inf        Inf        Inf       
 0.0020002  1.         0.59365    2.         Inf        Inf        Inf       
 0.0020005  1.         0.51241    2.         Inf        Inf        Inf       
 0.0020007  1.         0.44795    2.         Inf        Inf        Inf       
 0.0020009  1.         0.3968     2.         Inf        Inf        Inf       
 0.0020012  1.         0.3562     2.         Inf        Inf        Inf       
 0.0020014  1.         0.32399    2.         Inf        Inf        Inf       
 0.0020016  1.         0.29843    2.         Inf        Inf        Inf       
 0.0020018  1.         0.27816    2.         Inf        Inf        Inf       
 0.0020021  1.         0.26207    2.         Inf        Inf        Inf       
 0.0020023  1.         0.2493     2.         Inf        Inf        Inf       
 0.0020027  1.         0.23455    2.         Inf        Inf        Inf       
 0.002003   1.         0.22425    2.         Inf        Inf        Inf       
 0.0020034  1.         0.21705    2.         Inf        Inf        Inf       
 0.0020037  1.         0.21203    2.         Inf        Inf        Inf       
 0.0020041  1.         0.20853    2.         Inf        Inf        Inf       
 0.0020046  1.         0.20501    2.         Inf        Inf        Inf       
 0.0020052  1.         0.20304    2.         Inf        Inf        Inf       
 0.0020057  1.         0.20195    2.         Inf        Inf        Inf       
 0.0020066  1.         0.20116    2.         Inf        Inf        Inf       
 0.0020075  1.         0.20088    2.         Inf        Inf        Inf       
 0.0020088  1.         0.20083    2.         Inf        Inf        Inf       
 0.0020102  1.         0.20093    2.         Inf        Inf        Inf       
 0.0020128  1.         0.20118    3.         Inf        Inf        Inf       
 0.0020154  1.         0.20144    3.         Inf        Inf        Inf       
 0.0020235  1.         0.20225    3.         Inf        Inf        Inf       
 0.002042   1.         0.2041     3.         Inf        Inf        Inf       
 0.0021042  1.         0.21032    3.         Inf        Inf        Inf       
 0.0023861  1.         0.23851    3.         Inf        Inf        Inf       
 0.0033379  1.         0.33369    3.         Inf        32.293     Inf       
 0.006      1.         0.5999     3.         Inf        60.049     Inf       
 0.006      1.         0.59988    2.         0.006268   75.675     Inf       
 0.006      1.         0.59986    2.         0.0062822  0.0062907  Inf       
 0.0060002  0.99979    0.41308    6.         0.0060146  0.0060154  Inf       
 0.0060004  0.99959    0.2612     2.         0.0063662  0.0063994  Inf       
 0.0060006  0.99938    0.13768    2.         Inf        0.014459   Inf       
 0.0060008  0.99922    0.05737    2.         0.036316   0.014556   Inf       
 0.0060009  0.99906   -0.010949   2.         0.012305   0.013696   Inf       
 0.006001   0.99895   -0.051084   2.         0.0099079  0.021674   Inf       
 0.0060012  0.99884   -0.087079   2.         0.0097056  0.02745    Inf       
 0.0060013  0.99873   -0.11936    2.         Inf        0.010467   Inf       
 0.0060014  0.99862   -0.14831    2.         0.0095924  0.010467   Inf       
 0.0060016  0.99844   -0.19019    2.         0.009566   0.017198   Inf       
 0.0060017  0.99826   -0.2251     2.         0.010334   0.018076   Inf       
 0.0060019  0.99808   -0.25421    2.         0.011993   0.013454   Inf       
 0.0060021  0.9979    -0.27847    2.         0.01286    0.013454   Inf       
 0.0060024  0.99762   -0.3078     2.         0.013691   0.01788    Inf       
 0.0060027  0.99735   -0.33005    2.         0.016938   0.01642    Inf       
 0.0060029  0.99707   -0.34693    2.         0.019064   0.01727    Inf       
 0.0060032  0.9968    -0.35973    2.         0.019063   Inf        Inf       
 0.0060035  0.99653   -0.36945    2.         0.019063   Inf        Inf       
 0.0060039  0.99607   -0.38074    2.         0.017983   0.0255     Inf       
 0.0060044  0.99562   -0.38786    2.         0.02102    0.036425   Inf       
 0.0060048  0.99517   -0.39235    2.         0.023121   0.48687    Inf       
 0.0060053  0.99471   -0.39518    2.         0.023119   0.48689    Inf       
 0.0060061  0.99394   -0.39786    2.         0.025004   0.040719   Inf       
 0.0060068  0.99317   -0.39905    2.         0.029379   0.037549   Inf       
 0.006008   0.99201   -0.39975    3.         0.042992   0.044538   Inf       
 0.0060092  0.99084   -0.39994    3.         0.054826   0.072693   Inf       
 0.0060112  0.98881   -0.40001    3.         0.057858   0.2358     Inf       
 0.0060132  0.98679   -0.40001    3.         0.12817    0.13625    Inf       
 0.0060183  0.98167   -0.40002    3.         0.081866   0.12411    Inf       
 0.006028   0.97203   -0.40004    3.         0.1359     0.16739    Inf       
 0.0061059  0.89415   -0.40055    3.         0.66718    0.6778     Inf       
 0.007      0.        -0.4499     3.         3.3443     3.8843     Inf       
 0.007      0.        -0.44988    2.         0.007      0.10551    Inf       
 0.007      0.        -0.44986    2.         0.007      0.0072699  Inf       
 0.007      0.        -0.42498    2.         Inf        Inf        Inf       
 0.0070002  0.        -0.28563    2.         Inf        Inf        Inf       
 0.0070003  0.        -0.16619    2.         Inf        Inf        Inf       
 0.0070005  0.        -0.063826   2.         Inf        Inf        Inf       
 0.0070006  0.         0.023909   2.         Inf        Inf        Inf       
 0.0070007  0.         0.076209   2.         Inf        Inf        Inf       
 0.0070009  0.         0.12331    2.         Inf        Inf        Inf       
 0.007001   0.         0.16573    2.         Inf        Inf        Inf       
 0.0070011  0.         0.22395    2.         Inf        Inf        Inf       
 0.0070013  0.         0.27334    2.         Inf        Inf        Inf       
 0.0070014  0.         0.31526    2.         Inf        Inf        Inf       
 0.0070016  0.         0.35082    2.         Inf        Inf        Inf       
 0.0070019  0.         0.39568    2.         Inf        Inf        Inf       
 0.0070021  0.         0.43044    2.         Inf        Inf        Inf       
 0.0070024  0.         0.45737    2.         Inf        Inf        Inf       
 0.0070026  0.         0.47823    2.         Inf        Inf        Inf       
 0.0070029  0.         0.4944     2.         Inf        Inf        Inf       
 0.0070033  0.         0.51347    2.         Inf        Inf        Inf       
 0.0070037  0.         0.526      2.         Inf        Inf        Inf       
 0.0070041  0.         0.53424    2.         Inf        Inf        Inf       
 0.0070045  0.         0.53964    2.         Inf        Inf        Inf       
 0.0070052  0.         0.54489    2.         Inf        Inf        Inf       
 0.0070059  0.         0.54748    2.         Inf        Inf        Inf       
 0.0070066  0.         0.54875    2.         Inf        Inf        Inf       
 0.0070077  0.         0.54966    2.         Inf        Inf        Inf       
 0.0070089  0.         0.54991    2.         Inf        Inf        Inf       
 0.007011   0.         0.55       2.         Inf        Inf        Inf       
 0.0070131  0.         0.55       2.         Inf        Inf        Inf       
 0.0070183  0.         0.55       2.         Inf        Inf        Inf       
 0.0070282  0.         0.55       3.         Inf        Inf        Inf       
 0.0070761  0.         0.55       3.         Inf        Inf        Inf       
 0.007401   0.         0.55       3.         Inf        Inf        Inf       
 0.0087005  0.         0.55       3.         Inf        Inf        Inf       
 0.01       0.         0.55       3.         Inf        Inf        Inf       
Gnucap   System status
iterations: op=0, dc=0, tran=341, fourier=0, total=483
transient timesteps: accepted=139, rejected=3, total=142
nodes: user=2, subckt=0, model=2, total=4
dctran density=100.0%, ac density=100.0%
