pid0a #(.p(.1),.i(100),.d(1m)) dut (.sp(0),.sn(out),.cp(n1),.cn(0));
// pid0a #(.d(1m)) dut (out, 0, n1, 0); 
capacitor #(.c(1u)) c (.p(out),.n(0));
resistor #(.r(1)) r (.p(out),.n(0));
#Time       v(n1)      v(out)     iter(0)    timef(dut._b_ddt_1_p_ddt_1_n) timef(dut._b_idt_0_p_idt_0_n)
 0.         0.         0.         3.         Inf        Inf       
 20.p       10.n       9.9998u    3.         30.p       840.02n   
 31.p       15.5n      15.5u      3.         Inf        6.9118n   
 2.7401n    1.3701u    0.0013682  3.         Inf        5.6159n   
 5.4492n    2.7246u    0.0027172  3.         Inf        Inf       
 22.182n    11.091u    0.010969   3.         Inf        806.39u   
 38.916n    19.458u    0.019084   3.         Inf        Inf       
 55.649n    27.824u    0.027065   3.         0.0014338  0.0017084 
 72.382n    36.191u    0.034913   3.         0.0010852  0.001468  
 89.115n    44.558u    0.042631   3.         0.0011631  0.0023384 
 105.85n    52.924u    0.050221   3.         0.0017765  0.0023828 
 122.58n    61.291u    0.057685   3.         Inf        Inf       
 139.31n    69.657u    0.065025   3.         Inf        0.0014787 
 156.05n    78.024u    0.072243   3.         Inf        0.0015948 
 172.78n    86.391u    0.079342   3.         Inf        0.0019008 
 189.51n    94.757u    0.086322   3.         Inf        0.0015921 
 206.25n    103.12u    0.093187   3.         Inf        Inf       
 222.98n    111.49u    0.099938   3.         Inf        0.0025791 
 249.36n    124.68u    0.11036    3.         Inf        0.0018141 
 275.75n    137.87u    0.1205     3.         Inf        0.0034864 
 302.13n    151.07u    0.13039    3.         Inf        0.0035922 
 328.51n    164.26u    0.14001    3.         0.0016879  0.0031226 
 354.9n     177.45u    0.14938    3.         0.001201   0.0023709 
 396.89n    198.44u    0.16381    3.         0.001359   0.0058982 
 438.88n    219.44u    0.17763    3.         0.0022642  0.0028988 
 480.87n    240.44u    0.19089    3.         Inf        0.0033895 
 522.87n    261.43u    0.20361    3.         Inf        0.004853  
 564.86n    282.43u    0.2158     3.         Inf        0.0040791 
 631.69n    315.85u    0.23418    3.         Inf        0.0042033 
 698.53n    349.26u    0.25137    3.         Inf        0.0085928 
 765.36n    382.68u    0.26746    3.         Inf        0.0058316 
 832.2n     416.1u     0.2825     3.         Inf        0.0061663 
 899.03n    449.52u    0.29657    3.         Inf        0.0053831 
 1.0054u    502.7u     0.31712    3.         Inf        0.0056141 
 1.1118u    555.89u    0.3356     3.         Inf        0.0075269 
 1.2182u    609.08u    0.35221    3.         Inf        0.011906  
 1.3245u    662.26u    0.36714    3.         Inf        0.0090792 
 1.4309u    715.45u    0.38057    3.         Inf        0.019117  
 1.6002u    800.1u     0.39922    3.         Inf        0.0099707 
 1.7695u    884.76u    0.41497    3.         Inf        0.010716  
 1.9388u    969.41u    0.42825    3.         Inf        0.012208  
 2.1081u    0.0010541  0.43947    3.         Inf        0.01407   
 2.2774u    0.0011387  0.44893    3.         Inf        0.028458  
 2.5469u    0.0012735  0.46109    3.         Inf        0.018815  
 2.8164u    0.0014082  0.47036    3.         Inf        0.022263  
 3.0858u    0.0015429  0.47743    3.         Inf        0.047299  
 3.3553u    0.0016776  0.48283    3.         0.023617   0.024862  
 3.6248u    0.0018124  0.48695    3.         0.015267   0.020838  
 4.0536u    0.0020268  0.49163    3.         0.01558    0.02642   
 4.4825u    0.0022413  0.49466    3.         0.024664   0.034095  
 4.9114u    0.0024557  0.49663    3.         0.02477    0.038102  
 5.3403u    0.0026701  0.49791    3.         0.021779   0.073207  
 5.7692u    0.0028846  0.49875    3.         0.022347   Inf       
 6.4517u    0.0032259  0.49954    3.         0.027832   0.063587  
 7.1343u    0.0035672  0.49995    3.         0.04637    0.10787   
 7.8169u    0.0039084  0.50017    3.         Inf        0.13403   
 8.4995u    0.0042497  0.50029    3.         Inf        0.12669   
 9.182u     0.004591   0.50037    3.         Inf        0.11473   
 10.268u    0.0051342  0.50045    3.         Inf        0.097307  
 11.355u    0.0056774  0.50052    3.         0.085944   0.15245   
 12.441u    0.0062207  0.50057    3.         0.064207   0.099027  
 13.528u    0.0067639  0.50063    3.         0.075577   0.11011   
 14.614u    0.0073071  0.50069    3.         0.077549   0.11593   
 16.343u    0.0081716  0.50077    3.         0.076663   0.13161   
 18.072u    0.0090362  0.50086    3.         0.12773    0.30569   
 19.801u    0.0099007  0.50095    3.         Inf        0.33953   
 21.53u     0.010765   0.50104    3.         Inf        0.29514   
 23.26u     0.01163    0.50113    3.         Inf        Inf       
 26.011u    0.013005   0.50127    3.         Inf        0.28215   
 28.762u    0.014381   0.50141    3.         Inf        0.83187   
 31.514u    0.015757   0.50155    3.         Inf        0.30075   
 34.265u    0.017133   0.50169    3.         Inf        0.29321   
 37.017u    0.018508   0.50183    3.         Inf        Inf       
 41.396u    0.020698   0.50206    3.         Inf        0.31529   
 45.775u    0.022888   0.50229    3.         Inf        0.6365    
 50.155u    0.025077   0.50252    3.         Inf        Inf       
 54.534u    0.027267   0.50275    3.         0.38383    0.32262   
 58.913u    0.029457   0.50298    3.         0.27309    0.29674   
 65.88u     0.03294    0.50335    3.         0.309      0.40084   
 72.846u    0.036423   0.50372    3.         0.51474    0.52673   
 79.813u    0.039906   0.5041     3.         Inf        0.58501   
 86.779u    0.04339    0.50447    3.         Inf        1.1894    
 93.746u    0.046873   0.50485    3.         0.57623    0.66176   
 104.83u    0.052413   0.50546    3.         0.48508    0.63161   
 115.91u    0.057954   0.50608    3.         0.58727    0.75362   
 126.99u    0.063494   0.5067     3.         1.0237     1.6738    
 138.07u    0.069034   0.50732    3.         Inf        1.5308    
 149.15u    0.074575   0.50796    3.         Inf        1.5812    
 166.77u    0.083386   0.50898    3.         Inf        1.881     
 184.39u    0.092197   0.51001    3.         Inf        2.0736    
 202.02u    0.10101    0.51106    3.         Inf        1.5571    
 219.64u    0.10982    0.51213    3.         Inf        1.3627    
 237.26u    0.11863    0.51321    3.         1.5852     1.8964    
 265.31u    0.13266    0.51496    3.         1.3409     1.8756    
 293.37u    0.14668    0.51676    3.         1.6351     2.1323    
 321.42u    0.16071    0.51859    3.         2.8818     2.8808    
 349.48u    0.17474    0.52046    3.         Inf        2.4178    
 377.53u    0.18877    0.52237    3.         Inf        5.0431    
 422.08u    0.21104    0.52549    3.         Inf        3.2779    
 466.63u    0.23331    0.5287     3.         Inf        4.1241    
 511.18u    0.25559    0.53202    3.         Inf        3.9389    
 555.72u    0.27786    0.53543    3.         Inf        3.5083    
 600.27u    0.30014    0.53894    3.         Inf        6.484     
 670.95u    0.33547    0.54472    3.         Inf        4.6924    
 741.62u    0.37081    0.55074    3.         Inf        7.8943    
 812.3u     0.40615    0.55702    3.         Inf        6.8992    
 882.97u    0.44149    0.56355    3.         6.2011     6.6135    
 953.65u    0.47682    0.57032    3.         4.4117     6.0697    
 0.0010653  0.53266    0.58154    3.         4.9833     6.2358    
 0.001177   0.58851    0.59338    3.         8.2851     11.618    
 0.0012887  0.64435    0.60584    3.         Inf        Inf       
 0.0014004  0.70019    0.61893    3.         Inf        19.919    
 0.0015121  0.75603    0.63264    3.         Inf        16.307    
 0.0016889  0.84445    0.65562    3.         Inf        14.373    
 0.0018657  0.93286    0.68017    3.         Inf        16.952    
 0.002      1.         0.69985    3.         Inf        19.331    
 0.002      1.         0.69985    2.         0.0021332  0.057508  
 0.002      1.         0.69984    2.         0.0020007  0.0022907 
 0.002      1.         0.6989     6.         0.002      0.0020053 
 0.002      1.         0.69818    2.         Inf        0.0020294 
 0.0020006  1.         0.47997    2.         Inf        0.0032036 
 0.0020011  1.         0.35737    2.         Inf        0.0091583 
 0.0020017  1.         0.2885     2.         Inf        Inf       
 0.0020022  1.         0.24982    2.         Inf        Inf       
 0.0020028  1.         0.22811    2.         Inf        Inf       
 0.0020034  1.         0.21593    2.         Inf        Inf       
 0.0020039  1.         0.20911    2.         Inf        Inf       
 0.0020048  1.         0.20367    2.         Inf        0.1328    
 0.0020058  1.         0.2017     2.         Inf        0.14002   
 0.0020072  1.         0.20081    2.         Inf        0.13985   
 0.0020087  1.         0.2008     2.         Inf        0.1473    
 0.0020116  1.         0.20106    3.         Inf        0.23252   
 0.0020161  1.         0.20151    3.         Inf        0.27037   
 0.0020269  1.         0.20259    3.         Inf        0.79749   
 0.002057   1.         0.2056     3.         Inf        1.4787    
 0.002155   1.         0.2154     3.         Inf        3.0418    
 0.0024961  1.         0.24951    3.         Inf        21.636    
 0.0035681  1.         0.35671    3.         Inf        35.927    
 0.006      1.         0.5999     3.         Inf        118.79    
 0.006      1.         0.59988    2.         0.0064923  0.29668   
 0.006      1.         0.59986    2.         0.0064359  0.26336   
 0.0060005  0.99953    0.22178    6.         Inf        0.0060407 
 0.0060008  0.99919    0.038299   2.         Inf        0.0076691 
 0.0060012  0.99884   -0.091037   2.         0.032167   0.039583  
 0.0060014  0.99861   -0.15503    2.         0.021287   0.04015   
 0.0060016  0.99838   -0.20578    2.         0.019359   0.040165  
 0.006002   0.998     -0.26743    2.         0.023946   0.027724  
 0.0060024  0.99762   -0.30952    2.         0.032253   0.035358  
 0.0060028  0.99725   -0.33824    2.         0.02506    Inf       
 0.0060034  0.99662   -0.36769    2.         0.026958   0.041044  
 0.006004   0.99599   -0.3831     2.         0.040122   0.049426  
 0.0060046  0.99537   -0.39116    2.         Inf        Inf       
 0.0060057  0.9943    -0.3973     3.         Inf        0.072841  
 0.0060068  0.99324   -0.39918    3.         Inf        0.064627  
 0.0060086  0.99136   -0.39998    3.         Inf        0.085063  
 0.0060105  0.98948   -0.4        3.         Inf        0.36927   
 0.0060148  0.98521   -0.40001    3.         Inf        0.16128   
 0.0060223  0.97773   -0.40002    3.         Inf        0.33734   
 0.0060554  0.94458   -0.40015    3.         1.9632     0.83494   
 0.0062526  0.74735   -0.40317    3.         3.1751     6.4357    
 0.0064499  0.55012   -0.41007    3.         6.2623     8.7828    
 0.0066471  0.35289   -0.42087    3.         17.547     14.755    
 0.0068443  0.15567   -0.43556    3.         12.014     67.86     
 0.007      0.        -0.4499     3.         8.8141     17.031    
 0.007      0.        -0.44988    2.         0.0070002  0.082066  
 0.007      0.        -0.44986    2.         0.0070002  0.0072883 
 0.0070002  0.        -0.31012    2.         Inf        Inf       
 0.0070005  0.        -0.085539   2.         Inf        Inf       
 0.0070008  0.         0.080406   2.         Inf        Inf       
 0.007001   0.         0.17529    2.         Inf        Inf       
 0.0070012  0.         0.251      2.         Inf        Inf       
 0.0070016  0.         0.34126    2.         Inf        Inf       
 0.0070019  0.         0.40427    2.         Inf        Inf       
 0.0070023  0.         0.44826    2.         Inf        Inf       
 0.0070029  0.         0.49463    2.         Inf        Inf       
 0.0070034  0.         0.51987    2.         Inf        Inf       
 0.007004   0.         0.5336     2.         Inf        Inf       
 0.007005   0.         0.54443    2.         Inf        Inf       
 0.007006   0.         0.54811    2.         Inf        Inf       
 0.0070077  0.         0.54984    2.         Inf        Inf       
 0.0070094  0.         0.54999    2.         Inf        Inf       
 0.0070129  0.         0.55       2.         Inf        Inf       
 0.0070188  0.         0.55       2.         Inf        Inf       
 0.0070366  0.         0.55       3.         Inf        Inf       
 0.0071024  0.         0.55       3.         Inf        Inf       
 0.0073253  0.         0.55       3.         Inf        Inf       
 0.0082169  0.         0.55       3.         Inf        Inf       
 0.01       0.         0.55       3.         Inf        Inf       
Gnucap   System status
iterations: op=0, dc=0, tran=525, fourier=0, total=716
transient timesteps: accepted=188, rejected=3, total=191
nodes: user=2, subckt=0, model=0, total=2
dctran density=100.0%, ac density=100.0%
#Time       v(n1)      v(out)     iter(0)    timef(dut._b_ddt_1_p_ddt_1_n) timef(dut._b_idt_0_p_idt_0_n) timef(dut._b_sp_sn)
 0.         0.         0.         3.         Inf        Inf        Inf       
 20.p       10.n       9.9998u    3.         30.p       120.02n    Inf       
 31.p       15.5n      15.5u      3.         Inf        2.6317n    Inf       
 1.0549n    527.47n    527.2u     3.         Inf        2.1486n    Inf       
 2.0789n    1.0394u    0.0010384  3.         Inf        224.53u    Inf       
 34.183n    17.092u    0.016804   3.         703.65u    649.72u    Inf       
 99.756n    49.878u    0.047483   3.         0.0012053  0.0023812  Inf       
 205.53n    102.77u    0.092945   3.         0.0024283  0.0038946  Inf       
 311.31n    155.65u    0.13384    3.         0.0051067  0.003587   Inf       
 471.41n    235.7u     0.18812    3.         0.0074867  0.0050154  Inf       
 631.5n     315.75u    0.23435    3.         0.0059392  0.01053    Inf       
 791.6n     395.8u     0.27374    3.         0.0064969  0.0070124  Inf       
 951.7n     475.85u    0.30728    3.         0.0095796  0.0087265  Inf       
 1.1978u    598.88u    0.34952    3.         Inf        0.013072   Inf       
 1.4438u    721.9u     0.3825     3.         Inf        0.013873   Inf       
 1.6899u    844.93u    0.40826    3.         0.011141   0.016057   Inf       
 1.9359u    967.95u    0.42838    3.         0.0080836  Inf        Inf       
 2.182u     0.001091   0.4441     3.         0.0084126  0.0213     Inf       
 2.5824u    0.0012912  0.46279    3.         0.037476   0.030102   Inf       
 2.9829u    0.0014914  0.47525    3.         0.011166   0.029478   Inf       
 3.3833u    0.0016917  0.48356    3.         0.012507   0.018902   Inf       
 3.7838u    0.0018919  0.48911    3.         0.018722   0.018395   Inf       
 4.4318u    0.0022159  0.49454    3.         Inf        0.04025    Inf       
 5.0798u    0.0025399  0.49733    3.         Inf        0.026596   Inf       
 5.7278u    0.0028639  0.49877    3.         0.027883   0.02776    Inf       
 6.8076u    0.0034038  0.49985    3.         0.024326   0.0552     Inf       
 7.8873u    0.0039437  0.50021    3.         0.03038    0.056952   Inf       
 9.8089u    0.0049045  0.50044    3.         0.060603   0.072788   Inf       
 11.73u     0.0058652  0.50054    3.         Inf        0.07885    Inf       
 16.188u    0.0080938  0.50077    3.         Inf        0.12878    Inf       
 24.086u    0.012043   0.50117    3.         Inf        0.24235    Inf       
 65.139u    0.03257    0.50331    3.         Inf        0.92005    Inf       
 375.6u     0.1878     0.52224    3.         5.9791     Inf        Inf       
 0.0017505  0.87526    0.664      3.         15.821     41.74      Inf       
 0.002      1.         0.69985    3.         30.12      47.383     Inf       
 0.002      1.         0.69985    2.         0.0021485  0.063887   Inf       
 0.002      1.         0.69984    2.         0.0020004  0.0021868  Inf       
 0.002      1.         0.69945    6.         0.002      0.0020021  Inf       
 0.002      1.         0.69917    2.         Inf        0.0020085  Inf       
 0.002      1.         0.69611    2.         Inf        0.0020609  Inf       
 0.0020002  1.         0.59413    2.         Inf        0.0023218  Inf       
 0.0020005  1.         0.51312    2.         Inf        0.0063811  Inf       
 0.0020007  1.         0.44877    2.         Inf        Inf        Inf       
 0.0020009  1.         0.39765    2.         Inf        Inf        Inf       
 0.0020012  1.         0.35704    2.         Inf        Inf        Inf       
 0.0020014  1.         0.32479    2.         Inf        Inf        Inf       
 0.0020016  1.         0.29917    2.         Inf        Inf        Inf       
 0.0020018  1.         0.27882    2.         Inf        Inf        Inf       
 0.0020021  1.         0.26266    2.         Inf        Inf        Inf       
 0.0020023  1.         0.24982    2.         Inf        Inf        Inf       
 0.0020027  1.         0.23494    2.         Inf        0.017082   Inf       
 0.002003   1.         0.22454    2.         Inf        0.017816   Inf       
 0.0020034  1.         0.21727    2.         Inf        Inf        Inf       
 0.0020037  1.         0.21219    2.         Inf        Inf        Inf       
 0.0020041  1.         0.20865    2.         Inf        Inf        Inf       
 0.0020046  1.         0.20508    2.         Inf        0.038027   Inf       
 0.0020052  1.         0.20309    2.         Inf        0.039858   Inf       
 0.0020057  1.         0.20199    2.         Inf        Inf        Inf       
 0.0020066  1.         0.20117    2.         Inf        0.046805   Inf       
 0.0020074  1.         0.20089    2.         Inf        0.048952   Inf       
 0.0020088  1.         0.20083    2.         Inf        0.053442   Inf       
 0.0020101  1.         0.20092    2.         Inf        0.056186   Inf       
 0.0020127  1.         0.20117    3.         Inf        0.099753   Inf       
 0.0020153  1.         0.20143    3.         Inf        0.10682    Inf       
 0.0020232  1.         0.20222    3.         Inf        0.26416    Inf       
 0.0020411  1.         0.20401    3.         Inf        0.32542    Inf       
 0.0021013  1.         0.21003    3.         Inf        0.91836    Inf       
 0.0023834  1.         0.23824    3.         Inf        3.8613     Inf       
 0.0033355  1.         0.33345    3.         Inf        20.377     Inf       
 0.006      1.         0.5999     3.         Inf        102.17     Inf       
 0.006      1.         0.59988    2.         0.0062681  0.16431    Inf       
 0.006      1.         0.59986    2.         0.0062422  0.14898    Inf       
 0.0060002  0.99979    0.40989    6.         Inf        0.0060163  Inf       
 0.0060004  0.99958    0.25601    2.         Inf        0.0065368  Inf       
 0.0060006  0.99937    0.13137    2.         Inf        Inf        Inf       
 0.0060008  0.99921    0.052355   2.         Inf        0.014647   Inf       
 0.006001   0.99905   -0.014907   2.         Inf        0.012938   Inf       
 0.0060011  0.99894   -0.053561   2.         Inf        0.019732   Inf       
 0.0060012  0.99884   -0.088336   2.         Inf        0.013522   Inf       
 0.0060013  0.99873   -0.11962    2.         Inf        0.0099972  Inf       
 0.0060014  0.99857   -0.16194    2.         Inf        0.010598   Inf       
 0.0060016  0.99841   -0.19786    2.         0.011965   0.012829   Inf       
 0.0060018  0.99824   -0.22837    2.         0.010313   0.012174   Inf       
 0.0060019  0.99808   -0.25427    2.         0.010313   Inf        Inf       
 0.0060022  0.99783   -0.28702    2.         0.012578   0.01871    Inf       
 0.0060024  0.99757   -0.3124     2.         Inf        0.040984   Inf       
