#           v(in)      v(out)     iter(0)   
-10.       -10.       -10.        3.        
-8.        -8.        -8.         3.        
-6.        -6.        -6.         3.        
-4.        -4.        -4.         3.        
-2.        -2.        -2.         3.        
 0.         0.         0.         3.        
 2.         2.         2.         3.        
 4.         4.         4.         3.        
 6.         6.         6.         3.        
 8.         8.         8.         3.        
 10.        10.        10.        3.        
#Time       v(in)      v(out)     iter(0)   
 0.         0.         0.         2.        
 248.94n    1.5641u    389.26p    15.       
 786.12n    4.9393u    2.1353n    3.        
 1.3233u    8.3145u    5.6931n    3.        
 1.8605u    11.69u     11.062n    3.        
 7.1505u    44.928u    160.36n    3.        
 18.766u    117.91u    1.0988u    3.        
 42.979u    270.05u    5.7131u    3.        
 84.688u    532.1u     21.866u    3.        
 151.37u    951.08u    68.31u     3.        
 218.05u    0.00137    138.79u    3.        
 349.54u    0.0021962  341.66u    3.        
 481.03u    0.0030223  621.43u    3.        
 713.58u    0.0044835  0.0012738  3.        
 946.13u    0.0059446  0.0020947  3.        
 0.0013324  0.0083715  0.0037339  3.        
 0.0017187  0.010798   0.0056281  3.        
 0.0023599  0.014827   0.0091169  3.        
 0.0030012  0.018856   0.012868   3.        
 0.0041385  0.026      0.019799   3.        
 0.0052758  0.033143   0.026884   3.        
 0.0076774  0.04822    0.04194    3.        
 0.011494   0.072155   0.065886   3.        
 0.020064   0.12573    0.11949    3.        
 0.040931   0.25435    0.24825    3.        
 0.082664   0.49636    0.49083    3.        
 0.1244     0.70443    0.69993    3.        
 0.187      0.92267    0.92013    3.        
 0.2496     1.         0.99998    3.        
 0.3122     0.9246     0.92695    3.        
 0.4061     0.55636    0.56179    3.        
 0.5        63.973n    0.0063974  3.        
Gnucap   System status
iterations: op=0, dc=33, tran=107, fourier=0, total=176
transient timesteps: accepted=32, rejected=4, total=36
nodes: user=2, subckt=0, model=0, total=2
dctran density=100.0%, ac density=100.0%
