pid0 #(.p(.1),.i(100),.d(1m)) dut (.sp(0),.sn(out),.cp(n1),.cn(0));
// pid0 #(.d(1m)) dut (out, 0, n1, 0); 
capacitor #(.c(1u)) c (.p(out),.n(0));
resistor #(.r(1)) r (.p(out),.n(0));
#Time       v(n1)      v(out)     iter(0)    timef(dut._b_ddt_1_p_ddt_1_n) timef(dut._b_idt_0_p_idt_0_n)
 0.         0.         0.         3.         Inf        Inf       
 20.p       10.n       9.9998u    3.         30.p       840.02n   
 31.p       15.5n      15.5u      3.         Inf        6.9118n   
 2.7401n    1.3701u    0.0013682  3.         108.8u     5.6159n   
 5.4492n    2.7246u    0.0027172  3.         142.52u    470.97u   
 22.182n    11.091u    0.010969   3.         467.86u    0.001016  
 38.916n    19.458u    0.019084   3.         0.0015113  Inf       
 55.649n    27.824u    0.027065   3.         Inf        0.0017084 
 72.382n    36.191u    0.034913   3.         Inf        0.0015348 
 89.115n    44.558u    0.042631   3.         Inf        0.0014731 
 105.85n    52.924u    0.050221   3.         0.0014101  0.0013935 
 122.58n    61.291u    0.057685   3.         0.0010414  0.0016914 
 139.31n    69.657u    0.065025   3.         0.001103   Inf       
 156.05n    78.024u    0.072243   3.         0.0016779  0.001776  
 172.78n    86.391u    0.079342   3.         Inf        0.0014235 
 189.51n    94.757u    0.086322   3.         Inf        0.0013944 
 206.25n    103.12u    0.093187   3.         0.0014616  0.0014252 
 222.98n    111.49u    0.099938   3.         0.0010402  0.0016153 
 249.36n    124.68u    0.11036    3.         0.0011748  0.0022855 
 275.75n    137.87u    0.1205     3.         0.0019527  0.0023149 
 302.13n    151.07u    0.13039    3.         Inf        0.0021813 
 328.51n    164.26u    0.14001    3.         0.0021265  0.0026337 
 354.9n     177.45u    0.14938    3.         0.001513   0.0037633 
 396.89n    198.44u    0.16381    3.         0.0017122  0.0052371 
 438.88n    219.44u    0.17763    3.         0.0028526  0.0066361 
 480.87n    240.44u    0.19089    3.         Inf        0.0043525 
 522.87n    261.43u    0.20361    3.         Inf        0.0044349 
 564.86n    282.43u    0.2158     3.         Inf        0.0059897 
 631.69n    315.85u    0.23418    3.         Inf        0.0045874 
 698.53n    349.26u    0.25137    3.         Inf        0.0046322 
 765.36n    382.68u    0.26746    3.         Inf        0.0058316 
 832.2n     416.1u     0.2825     3.         Inf        0.0061663 
 899.03n    449.52u    0.29657    3.         Inf        0.0064922 
 1.0054u    502.7u     0.31712    3.         Inf        0.013267  
 1.1118u    555.89u    0.3356     3.         Inf        0.007626  
 1.2182u    609.08u    0.35221    3.         Inf        0.017171  
 1.3245u    662.26u    0.36714    3.         0.0085739  0.0087297 
 1.4309u    715.45u    0.38057    3.         0.0061004  0.008874  
 1.6002u    800.1u     0.39922    3.         0.0069033  0.011146  
 1.7695u    884.76u    0.41497    3.         0.011501   0.013148  
 1.9388u    969.41u    0.42825    3.         Inf        0.013306  
 2.1081u    0.0010541  0.43947    3.         Inf        0.01407   
 2.2774u    0.0011387  0.44893    3.         Inf        0.028458  
 2.5469u    0.0012735  0.46109    3.         Inf        0.022574  
 2.8164u    0.0014082  0.47036    3.         Inf        0.0338    
 3.0858u    0.0015429  0.47743    3.         Inf        0.023512  
 3.3553u    0.0016776  0.48283    3.         Inf        0.024862  
 3.6248u    0.0018124  0.48695    3.         Inf        0.026176  
 4.0536u    0.0020268  0.49163    3.         Inf        0.050335  
 4.4825u    0.0022413  0.49466    3.         Inf        0.04859   
 4.9114u    0.0024557  0.49663    3.         Inf        0.029531  
 5.3403u    0.0026701  0.49791    3.         0.034568   0.031226  
 5.7692u    0.0028846  0.49875    3.         0.024596   0.037211  
 6.4517u    0.0032259  0.49954    3.         0.029617   0.043115  
 7.1343u    0.0035672  0.49995    3.         0.05349    0.10787   
 7.8169u    0.0039084  0.50017    3.         0.042867   0.076402  
 8.4995u    0.0042497  0.50029    3.         0.062977   0.066233  
 9.182u     0.004591   0.50037    3.         Inf        0.049746  
 10.268u    0.0051342  0.50045    3.         Inf        0.060565  
 11.355u    0.0056774  0.50052    3.         Inf        Inf       
 12.441u    0.0062207  0.50057    3.         Inf        0.15136   
 13.528u    0.0067639  0.50063    3.         Inf        0.083391  
 14.614u    0.0073071  0.50069    3.         0.097702   0.075614  
 16.343u    0.0081716  0.50077    3.         0.08264    0.10446   
 18.072u    0.0090362  0.50086    3.         0.10077    0.14384   
 19.801u    0.0099007  0.50095    3.         0.17759    0.21045   
 21.53u     0.010765   0.50104    3.         Inf        0.18594   
 23.26u     0.01163    0.50113    3.         0.143      0.32318   
 26.011u    0.013005   0.50127    3.         0.13025    0.16819   
 28.762u    0.014381   0.50141    3.         0.24264    0.23053   
 31.514u    0.015757   0.50155    3.         0.19596    0.40359   
 34.265u    0.017133   0.50169    3.         0.25387    0.37281   
 37.017u    0.018508   0.50183    3.         Inf        0.29832   
 41.396u    0.020698   0.50206    3.         Inf        0.47716   
 45.775u    0.022888   0.50229    3.         Inf        0.32931   
 50.155u    0.025077   0.50252    3.         0.37326    0.61016   
 54.534u    0.027267   0.50275    3.         0.30466    0.5121    
 58.913u    0.029457   0.50298    3.         Inf        0.39727   
 65.88u     0.03294    0.50335    3.         0.35869    0.3565    
 72.846u    0.036423   0.50372    3.         0.51474    0.52673   
 79.813u    0.039906   0.5041     3.         Inf        0.60452   
 86.779u    0.04339    0.50447    3.         0.56158    0.60037   
 93.746u    0.046873   0.50485    3.         0.39956    1.2523    
 104.83u    0.052413   0.50546    3.         0.45208    0.76112   
 115.91u    0.057954   0.50608    3.         0.75305    0.98012   
 126.99u    0.063494   0.5067     3.         Inf        1.3285    
 138.07u    0.069034   0.50732    3.         Inf        1.1813    
 149.15u    0.074575   0.50796    3.         Inf        1.2437    
 166.77u    0.083386   0.50898    3.         Inf        1.129     
 184.39u    0.092197   0.51001    3.         Inf        4.2317    
 202.02u    0.10101    0.51106    3.         Inf        1.5571    
 219.64u    0.10982    0.51213    3.         Inf        1.3627    
 237.26u    0.11863    0.51321    3.         Inf        1.8964    
 265.31u    0.13266    0.51496    3.         Inf        2.205     
 293.37u    0.14668    0.51676    3.         Inf        2.9413    
 321.42u    0.16071    0.51859    3.         Inf        2.5752    
 349.48u    0.17474    0.52046    3.         Inf        2.4178    
 377.53u    0.18877    0.52237    3.         Inf        5.0431    
 422.08u    0.21104    0.52549    3.         Inf        3.2779    
 466.63u    0.23331    0.5287     3.         Inf        4.1241    
 511.18u    0.25559    0.53202    3.         Inf        3.9389    
 555.72u    0.27786    0.53543    3.         Inf        3.5083    
 600.27u    0.30014    0.53894    3.         Inf        6.484     
 670.95u    0.33547    0.54472    3.         Inf        4.6924    
 741.62u    0.37081    0.55074    3.         Inf        7.8943    
 812.3u     0.40615    0.55702    3.         Inf        6.8992    
 882.97u    0.44149    0.56355    3.         6.2011     6.6135    
 953.65u    0.47682    0.57032    3.         4.4117     6.0697    
 0.0010653  0.53266    0.58154    3.         4.9833     6.2358    
 0.001177   0.58851    0.59338    3.         8.2851     11.618    
 0.0012887  0.64435    0.60584    3.         Inf        Inf       
 0.0014004  0.70019    0.61893    3.         Inf        19.919    
 0.0015121  0.75603    0.63264    3.         Inf        16.307    
 0.0016889  0.84445    0.65562    3.         Inf        14.373    
 0.0018657  0.93286    0.68017    3.         Inf        16.952    
 0.002      1.         0.69985    3.         Inf        19.331    
 0.002      1.         0.69985    2.         0.0021332  0.057508  
 0.002      1.         0.69984    2.         0.0020007  0.0022907 
 0.002      1.         0.69918    6.         0.002      0.0020048 
 0.002      1.         0.69853    2.         Inf        0.0020243 
 0.0020005  1.         0.48815    2.         Inf        0.0066637 
 0.0020011  1.         0.36657    2.         Inf        0.0078702 
 0.0020016  1.         0.29633    2.         Inf        Inf       
 0.0020021  1.         0.25576    2.         Inf        Inf       
 0.0020027  1.         0.23233    2.         Inf        Inf       
 0.0020032  1.         0.21881    2.         Inf        Inf       
 0.0020037  1.         0.21102    2.         Inf        Inf       
 0.0020046  1.         0.20456    2.         Inf        0.14708   
 0.0020055  1.         0.20209    2.         Inf        0.15515   
 0.0020069  1.         0.20089    2.         Inf        0.17865   
 0.0020083  1.         0.20078    2.         Inf        0.18771   
 0.0020109  1.         0.20098    3.         Inf        0.18282   
 0.0020148  1.         0.20138    3.         Inf        0.19263   
 0.0020234  1.         0.20224    3.         Inf        0.38797   
 0.0020449  1.         0.20439    3.         Inf        1.5131    
 0.0021172  1.         0.21162    3.         Inf        1.8073    
 0.0023561  1.         0.23551    3.         Inf        5.7816    
 0.0031205  1.         0.31195    3.         Inf        27.842    
 0.006      1.         0.5999     3.         Inf        80.17     
 0.006      1.         0.59988    2.         0.0065276  0.31756   
 0.006      1.         0.59986    2.         0.0064878  0.29404   
 0.0060005  0.99955    0.22927    6.         Inf        0.0060404 
 0.0060008  0.9992     0.043921   2.         Inf        0.007647  
 0.0060011  0.99885   -0.086833   2.         Inf        0.053233  
 0.0060014  0.99863   -0.15076    2.         Inf        0.042457  
 0.0060016  0.9984    -0.20164    2.         Inf        0.13453   
 0.006002   0.99803   -0.26393    2.         Inf        0.064647  
 0.0060023  0.99765   -0.30665    2.         Inf        0.042603  
 0.0060029  0.9971    -0.34745    2.         Inf        0.073517  
 0.0060035  0.99654   -0.37042    2.         0.045166   0.069725  
 0.006004   0.99598   -0.38335    2.         0.034243   0.046468  
 0.0060049  0.99508   -0.39366    2.         0.036836   0.043218  
 0.0060058  0.99418   -0.39759    2.         0.055768   0.057501  
 0.0060073  0.9927    -0.39964    3.         Inf        0.20101   
 0.0060088  0.99121   -0.39995    3.         0.10895    0.13545   
 0.0060117  0.98828   -0.40002    3.         0.099838   0.17128   
 0.0060162  0.98376   -0.40001    3.         0.13346    0.23382   
 0.0060272  0.97284   -0.40004    3.         0.30044    0.85607   
 0.0060577  0.94228   -0.40016    3.         1.9472     1.3922    
 0.0061563  0.84373   -0.40121    3.         2.426      2.1334    
 0.0064308  0.56917   -0.40924    3.         4.52       16.125    
 0.0067054  0.29462   -0.42481    3.         8.8173     25.509    
 0.0069799  0.02007   -0.44791    3.         20.336     Inf       
 0.007      0.        -0.4499     3.         3.3029     8.1907    
 0.007      0.        -0.44988    2.         0.0070001  0.042708  
 0.007      0.        -0.44986    2.         0.007      0.0071457 
 0.007      0.        -0.41224    2.         Inf        Inf       
 0.0070003  0.        -0.16482    2.         Inf        Inf       
 0.0070006  0.         0.018985   2.         Inf        Inf       
 0.0070009  0.         0.15553    2.         Inf        Inf       
 0.0070012  0.         0.25696    2.         Inf        Inf       
 0.0070015  0.         0.33231    2.         Inf        Inf       
 0.0070018  0.         0.38828    2.         Inf        Inf       
 0.0070023  0.         0.45296    2.         Inf        Inf       
 0.0070028  0.         0.49177    2.         Inf        Inf       
 0.0070033  0.         0.51505    2.         Inf        Inf       
 0.0070041  0.         0.53512    2.         Inf        Inf       
 0.0070049  0.         0.54366    2.         Inf        Inf       
 0.0070062  0.         0.5486     2.         Inf        Inf       
 0.0070075  0.         0.54969    2.         Inf        Inf       
 0.0070098  0.         0.55002    2.         Inf        Inf       
 0.0070121  0.         0.55       2.         Inf        Inf       
 0.0070186  0.         0.55       2.         Inf        Inf       
 0.0070322  0.         0.55       3.         Inf        Inf       
 0.0070833  0.         0.55       3.         Inf        Inf       
 0.0073485  0.         0.55       3.         Inf        Inf       
 0.0082323  0.         0.55       3.         Inf        Inf       
 0.01       0.         0.55       3.         Inf        Inf       
Gnucap   System status
iterations: op=0, dc=0, tran=524, fourier=0, total=715
transient timesteps: accepted=188, rejected=3, total=191
nodes: user=2, subckt=0, model=0, total=2
dctran density=100.0%, ac density=100.0%
#Time       v(n1)      v(out)     iter(0)    timef(dut._b_ddt_1_p_ddt_1_n) timef(dut._b_idt_0_p_idt_0_n) timef(dut._b_sp_sn)
 0.         0.         0.         3.         Inf        Inf        Inf       
 20.p       10.n       9.9998u    3.         30.p       120.02n    Inf       
 31.p       15.5n      15.5u      3.         Inf        2.6317n    Inf       
 1.0549n    527.47n    527.2u     3.         Inf        2.1486n    Inf       
 2.0789n    1.0394u    0.0010384  3.         Inf        155.68u    Inf       
 34.183n    17.092u    0.016804   3.         Inf        Inf        Inf       
 99.756n    49.878u    0.047483   3.         Inf        0.0023812  Inf       
 205.53n    102.77u    0.092945   3.         0.0029557  0.0030912  Inf       
 311.31n    155.65u    0.13384    3.         0.0027882  0.0045193  Inf       
 471.41n    235.7u     0.18812    3.         0.0037989  0.0082799  Inf       
 631.5n     315.75u    0.23435    3.         0.0068555  0.0069357  Inf       
 791.6n     395.8u     0.27374    3.         Inf        0.006126   Inf       
 951.7n     475.85u    0.30728    3.         0.0076036  0.0065795  Inf       
 1.1978u    598.88u    0.34952    3.         0.0065571  0.022351   Inf       
 1.4438u    721.9u     0.3825     3.         0.0080324  0.010127   Inf       
 1.6899u    844.93u    0.40826    3.         0.014036   0.010369   Inf       
 1.9359u    967.95u    0.42838    3.         Inf        0.0099176  Inf       
 2.182u     0.001091   0.4441     3.         Inf        0.010741   Inf       
 2.5824u    0.0012912  0.46279    3.         0.013901   0.021708   Inf       
 2.9829u    0.0014914  0.47525    3.         0.011166   0.018891   Inf       
 3.3833u    0.0016917  0.48356    3.         0.012507   0.018902   Inf       
 3.7838u    0.0018919  0.48911    3.         Inf        0.018395   Inf       
 4.4318u    0.0022159  0.49454    3.         0.016099   0.04025    Inf       
 5.0798u    0.0025399  0.49733    3.         0.019841   0.023398   Inf       
 5.7278u    0.0028639  0.49877    3.         0.035129   0.028472   Inf       
 6.8076u    0.0034038  0.49985    3.         0.024099   0.04162    Inf       
 7.8873u    0.0039437  0.50021    3.         0.029673   0.053144   Inf       
 9.8089u    0.0049045  0.50044    3.         0.057965   0.072788   Inf       
 11.73u     0.0058652  0.50054    3.         Inf        0.087298   Inf       
 16.188u    0.0080938  0.50077    3.         0.13018    0.16225    Inf       
 24.086u    0.012043   0.50117    3.         0.13299    0.48467    Inf       
 65.139u    0.03257    0.50331    3.         0.32397    Inf        Inf       
 375.6u     0.1878     0.52224    3.         1.9651     8.8663     Inf       
 0.0017505  0.87526    0.664      3.         15.232     33.129     Inf       
 0.002      1.         0.69985    3.         26.52      47.383     Inf       
 0.002      1.         0.69985    2.         0.0021485  0.063887   Inf       
 0.002      1.         0.69984    2.         0.0020004  0.0021868  Inf       
 0.002      1.         0.6995     6.         0.002      0.002002   Inf       
 0.002      1.         0.69917    2.         Inf        0.0020082  Inf       
 0.002      1.         0.69622    2.         Inf        0.0021227  Inf       
 0.0020002  1.         0.59357    2.         Inf        0.0023925  Inf       
 0.0020005  1.         0.51217    2.         Inf        0.013376   Inf       
 0.0020007  1.         0.4476     2.         Inf        Inf        Inf       
 0.0020009  1.         0.3964     2.         Inf        Inf        Inf       
 0.0020012  1.         0.3558     2.         Inf        Inf        Inf       
 0.0020014  1.         0.3236     2.         Inf        Inf        Inf       
 0.0020016  1.         0.29806    2.         Inf        Inf        Inf       
 0.0020019  1.         0.27781    2.         Inf        Inf        Inf       
 0.0020021  1.         0.26176    2.         Inf        Inf        Inf       
 0.0020023  1.         0.24903    2.         Inf        Inf        Inf       
 0.0020027  1.         0.23435    2.         Inf        0.017682   Inf       
 0.002003   1.         0.22409    2.         Inf        0.018439   Inf       
 0.0020034  1.         0.21694    2.         Inf        Inf        Inf       
 0.0020037  1.         0.21195    2.         Inf        Inf        Inf       
 0.0020041  1.         0.20847    2.         Inf        Inf        Inf       
 0.0020046  1.         0.20497    2.         Inf        0.042227   Inf       
 0.0020052  1.         0.20301    2.         Inf        0.044284   Inf       
 0.0020058  1.         0.20194    2.         Inf        Inf        Inf       
 0.0020066  1.         0.20115    2.         Inf        0.042797   Inf       
 0.0020075  1.         0.20088    2.         Inf        0.044764   Inf       
 0.0020088  1.         0.20083    2.         Inf        0.063979   Inf       
 0.0020102  1.         0.20093    2.         Inf        0.06731    Inf       
 0.0020128  1.         0.20118    3.         Inf        0.10661    Inf       
 0.0020155  1.         0.20145    3.         Inf        0.11425    Inf       
 0.0020236  1.         0.20226    3.         Inf        0.41357    Inf       
 0.0020425  1.         0.20415    3.         Inf        0.48413    Inf       
 0.0021057  1.         0.21047    3.         Inf        1.0538     Inf       
 0.002398   1.         0.2397     3.         Inf        3.9163     Inf       
 0.003484   1.         0.3483     3.         Inf        12.352     Inf       
 0.006      1.         0.5999     3.         Inf        49.329     Inf       
 0.006      1.         0.59988    2.         0.0062627  0.16111    Inf       
 0.006      1.         0.59986    2.         0.0062331  0.14362    Inf       
 0.0060002  0.9998     0.41625    6.         Inf        0.0060161  Inf       
 0.0060004  0.9996     0.26635    2.         Inf        0.0065235  Inf       
 0.0060006  0.99939    0.14399    2.         Inf        0.26447    Inf       
 0.0060008  0.99919    0.04409    2.         0.013705   0.26447    Inf       
 0.006001   0.99905   -0.01455    2.         0.010742   0.014412   Inf       
 0.0060011  0.99895   -0.052293   2.         0.010009   0.011195   Inf       
 0.0060012  0.99884   -0.08634    2.         0.0108     0.010343   Inf       
 0.0060013  0.99874   -0.11705    2.         Inf        0.17081    Inf       
 0.0060014  0.99858   -0.15941    2.         Inf        0.010538   Inf       
 0.0060016  0.99842   -0.19542    2.         Inf        0.011171   Inf       
 0.0060017  0.99826   -0.22605    2.         Inf        0.01212    Inf       
 0.0060019  0.99809   -0.25209    2.         Inf        0.01212    Inf       
 0.0060022  0.99784   -0.28511    2.         Inf        0.012335   Inf       
 0.0060024  0.99759   -0.31077    2.         0.015179   0.014142   Inf       
