#           v(in)      v(out)     iter(0)   
-10.       -10.       -10.        3.        
-8.        -8.        -8.         3.        
-6.        -6.        -6.         3.        
-4.        -4.        -4.         3.        
-2.        -2.        -2.         3.        
 0.         0.         0.         3.        
 2.         2.         2.         3.        
 4.         4.         4.         3.        
 6.         6.         6.         3.        
 8.         8.         8.         3.        
 10.        10.        10.        3.        
#Time       v(in)      v(out)     iter(0)   
 0.         0.         0.         2.        
 248.94n    1.5641u    194.66p    15.       
 786.05n    4.9389u    1.0677n    3.        
 1.3232u    8.3137u    2.8467n    3.        
 1.8603u    11.688u    5.5315n    3.        
 8.5244u    53.56u     114.04n    3.        
 24.884u    156.35u    968.15n    3.        
 61.336u    385.38u    5.8429u    3.        
 127.67u    802.15u    25.024u    3.        
 237.63u    0.001493   85.091u    3.        
 405.16u    0.0025457  240.61u    3.        
 572.7u     0.0035983  468.26u    3.        
 889.6u     0.0055894  0.001074   3.        
 0.0012065  0.0075805  0.0018831  3.        
 0.0017546  0.011024   0.0036714  3.        
 0.0023027  0.014468   0.0058587  3.        
 0.0032076  0.020153   0.010084   3.        
 0.0041125  0.025837   0.014848   3.        
 0.0056337  0.03539    0.023535   3.        
 0.0071548  0.04494    0.032698   3.        
 0.0099551  0.062509   0.050015   3.        
 0.012755   0.080058   0.067531   3.        
 0.019252   0.12067    0.10817    3.        
 0.030432   0.19005    0.17768    3.        
 0.058054   0.35673    0.34488    3.        
 0.10225    0.59916    0.58891    3.        
 0.14644    0.79568    0.78791    3.        
 0.20537    0.96094    0.95721    3.        
 0.2643     0.99597    0.99699    3.        
 0.34286    0.83455    0.84145    3.        
 0.5        141.64n    0.014164   3.        
