pid0 #(.p(.1),.i(100),.d(1m)) dut (.sp(0),.sn(out),.cp(n1),.cn(0));
// pid0 #(.d(1m)) dut (out, 0, n1, 0); 
capacitor #(.c(1u)) c (.p(out),.n(0));
resistor #(.r(1)) r (.p(out),.n(0));
#Time       v(n1)      v(out)     iter(0)    timef(dut._b_ddt_1_p_ddt_1_n) timef(dut._b_idt_0_p_idt_0_n)
 0.         0.         0.         3.         Inf        Inf       
 20.p       10.n       9.9998u    3.         30.p       84.u      
 31.p       15.5n      15.5u      3.         421.32u    68.839n   
 2.7401n    1.3701u    0.0013682  3.         24.247u    16.089n   
 9.6235n    4.8117u    0.0047887  3.         314.u      Inf       
 26.357n    13.178u    0.013006   3.         0.001003   0.0035095 
 43.09n     21.545u    0.021088   3.         0.001071   0.002918  
 59.823n    29.912u    0.029035   3.         0.001273   0.0028223 
 76.556n    38.278u    0.03685    3.         0.0013821  0.004352  
 93.289n    46.645u    0.044536   3.         0.0012451  0.0020671 
 110.02n    55.011u    0.052094   3.         0.0010273  0.0020671 
 126.76n    63.378u    0.059527   3.         0.001077   Inf       
 143.49n    71.745u    0.066837   3.         0.0016188  0.0029135 
 160.22n    80.111u    0.074025   3.         0.001333   0.0023951 
 176.96n    88.478u    0.081094   3.         0.0010937  Inf       
 193.69n    96.844u    0.088045   3.         0.00142    Inf       
 210.42n    105.21u    0.094882   3.         Inf        0.001399  
 227.15n    113.58u    0.1016     3.         0.0014635  0.0014723 
 254.03n    127.02u    0.11217    3.         0.0012771  0.0026424 
 280.91n    140.45u    0.12246    3.         0.002031   0.0022519 
 307.79n    153.89u    0.13247    3.         0.001849   0.0031193 
 334.66n    167.33u    0.14222    3.         0.0021906  0.0023208 
 361.54n    180.77u    0.15171    3.         Inf        0.0024435 
 404.32n    202.16u    0.16629    3.         0.0043747  0.0025893 
 447.1n     223.55u    0.18027    3.         0.0047597  0.0031813 
 489.88n    244.94u    0.19366    3.         Inf        0.0038401 
 532.65n    266.33u    0.2065     3.         Inf        0.0031838 
 575.43n    287.72u    0.21879    3.         Inf        0.003053  
 643.52n    321.76u    0.23731    3.         0.0069627  0.0039624 
 711.6n     355.8u     0.25461    3.         0.0075755  0.0069676 
 779.69n    389.84u    0.27077    3.         0.0057573  0.0071413 
 847.78n    423.89u    0.28586    3.         0.0041051  0.0075512 
 915.86n    457.93u    0.29997    3.         0.0035529  0.011466  
 1.0242u    512.11u    0.32053    3.         0.0039345  0.019915  
 1.1326u    566.3u     0.33899    3.         0.005208   0.0085113 
 1.241u     620.48u    0.35554    3.         0.008427   0.0088827 
 1.3493u    674.66u    0.3704     3.         0.0086656  0.01594   
 1.4577u    728.84u    0.38373    3.         0.0070577  0.010673  
 1.6302u    815.08u    0.4022     3.         0.0087902  0.011445  
 1.8026u    901.32u    0.41775    3.         0.014645   0.027216  
 1.9751u    987.56u    0.43082    3.         Inf        0.034604  
 2.1476u    0.0010738  0.44182    3.         0.016252   0.018049  
 2.3201u    0.00116    0.45108    3.         0.011564   0.019682  
 2.5946u    0.0012973  0.46292    3.         0.013085   0.021457  
 2.8691u    0.0014345  0.4719     3.         0.065905   0.023017  
 3.1436u    0.0015718  0.47872    3.         0.018424   0.021783  
 3.4181u    0.0017091  0.4839     3.         0.018946   Inf       
 3.6926u    0.0018463  0.48783    3.         0.016983   0.025544  
 4.1295u    0.0020648  0.49226    3.         0.018296   0.061278  
 4.5664u    0.0022832  0.49511    3.         0.025025   0.035311  
 5.0033u    0.0025017  0.49695    3.         0.042806   0.042407  
 5.4402u    0.0027201  0.49814    3.         0.034938   0.064268  
 5.8771u    0.0029386  0.49891    3.         0.025014   0.043031  
 6.5725u    0.0032863  0.49963    3.         0.028321   0.041364  
 7.2679u    0.003634   0.5        3.         0.040966   0.069128  
 7.9633u    0.0039816  0.5002     3.         0.063723   0.11399   
 8.6587u    0.0043293  0.50031    3.         0.05201    0.064442  
 9.3541u    0.004677   0.50038    3.         0.04236    0.094083  
 10.461u    0.0052304  0.50047    3.         0.053679   0.061048  
 11.568u    0.0057838  0.50053    3.         0.093979   0.074928  
 12.674u    0.0063372  0.50059    3.         Inf        0.11702   
 13.781u    0.0068905  0.50064    3.         0.096236   0.1122    
 14.888u    0.0074439  0.5007     3.         0.078378   0.098113  
 16.649u    0.0083246  0.50079    3.         0.12804    0.19259   
 18.411u    0.0092053  0.50088    3.         0.11306    0.33811   
 20.172u    0.010086   0.50097    3.         0.11081    0.1455    
 21.933u    0.010967   0.50106    3.         0.11395    0.26409   
 23.695u    0.011847   0.50115    3.         0.11692    0.13803   
 26.498u    0.013249   0.50129    3.         0.14331    0.16359   
 29.301u    0.01465    0.50144    3.         0.22982    0.339     
 32.104u    0.016052   0.50158    3.         Inf        Inf       
 34.907u    0.017454   0.50172    3.         Inf        0.48593   
 37.71u     0.018855   0.50187    3.         Inf        0.40607   
 42.172u    0.021086   0.5021     3.         0.39858    0.3607    
 46.633u    0.023316   0.50233    3.         0.30413    0.3085    
 51.094u    0.025547   0.50257    3.         0.29944    0.3271    
 55.556u    0.027778   0.5028     3.         0.38794    0.39592   
 60.017u    0.030009   0.50304    3.         0.39806    0.41685   
 67.117u    0.033559   0.50342    3.         0.34552    0.51008   
 74.217u    0.037109   0.50379    3.         0.39165    1.048     
 81.317u    0.040659   0.50418    3.         0.56278    1.6308    
 88.417u    0.044209   0.50456    3.         0.5787     Inf       
 95.517u    0.047759   0.50495    3.         0.5938     Inf       
 106.81u    0.053405   0.50557    3.         0.68737    1.1274    
 118.1u     0.059052   0.5062     3.         0.66399    1.4718    
 129.4u     0.064699   0.50683    3.         0.84809    1.1256    
 140.69u    0.070346   0.50747    3.         0.85802    1.0568    
 151.99u    0.075993   0.50812    3.         1.0921     1.1405    
 169.96u    0.084978   0.50916    3.         1.3545     1.298     
 187.93u    0.093963   0.51022    3.         1.0002     1.9433    
 205.9u     0.10295    0.51129    3.         0.9692     1.5087    
 223.87u    0.11193    0.51239    3.         1.0924     2.9472    
 241.84u    0.12092    0.51349    3.         1.2728     1.5322    
 270.37u    0.13519    0.51528    3.         1.606      1.7684    
 298.9u     0.14945    0.51711    3.         4.5834     2.1423    
 327.44u    0.16372    0.51899    3.         2.7975     2.591     
 355.97u    0.17798    0.5209     3.         2.2831     4.2834    
 384.5u     0.19225    0.52285    3.         2.3426     2.627     
 429.86u    0.21493    0.52604    3.         3.8541     3.4256    
 475.21u    0.23761    0.52933    3.         3.7095     4.0483    
 520.57u    0.26029    0.53273    3.         2.9139     4.2304    
 565.93u    0.28296    0.53622    3.         4.4149     5.4589    
 611.28u    0.30564    0.53983    3.         2.8078     7.315     
 683.5u     0.34175    0.54577    3.         3.6859     6.9443    
 755.72u    0.37786    0.55198    3.         6.874      6.4398    
 827.95u    0.41397    0.55844    3.         4.2703     10.933    
 900.17u    0.45008    0.56517    3.         4.4273     6.4394    
 972.39u    0.48619    0.57216    3.         15.534     6.7794    
 0.0010867  0.54333    0.58375    3.         5.6896     11.17     
 0.0012009  0.60047    0.59599    3.         7.874      10.157    
 0.0013152  0.6576     0.60889    3.         Inf        9.4708    
 0.0014295  0.71474    0.62244    3.         Inf        10.774    
 0.0015438  0.77188    0.63664    3.         9.5705     18.09     
 0.0017237  0.86184    0.66032    3.         8.4117     12.422    
 0.0019036  0.9518     0.68563    3.         10.294     14.53     
 0.002      1.         0.69985    3.         23.326     16.731    
 0.002      1.         0.69985    2.         0.0021146  0.19739   
 0.002      1.         0.69984    2.         0.0020006  0.0021754 
 0.002      1.         0.6989     6.         0.002      Inf       
 0.002      1.         0.69818    2.         Inf        Inf       
 0.0020006  1.         0.47912    2.         Inf        Inf       
 0.0020011  1.         0.35641    2.         Inf        Inf       
 0.0020017  1.         0.28769    2.         Inf        Inf       
 0.0020023  1.         0.24922    2.         Inf        Inf       
 0.0020028  1.         0.22768    2.         Inf        Inf       
 0.0020034  1.         0.21565    2.         Inf        Inf       
 0.0020039  1.         0.20893    2.         Inf        Inf       
 0.0020049  1.         0.20358    2.         Inf        Inf       
 0.0020058  1.         0.20166    2.         Inf        Inf       
 0.0020073  1.         0.2008     2.         Inf        Inf       
 0.0020088  1.         0.2008     2.         Inf        Inf       
 0.0020117  1.         0.20106    3.         Inf        Inf       
 0.0020163  1.         0.20153    3.         Inf        Inf       
 0.0020273  1.         0.20263    3.         Inf        Inf       
 0.0020586  1.         0.20576    3.         Inf        Inf       
 0.0021617  1.         0.21607    3.         Inf        Inf       
 0.002518   1.         0.2517     3.         Inf        Inf       
 0.003765   1.         0.3764     3.         Inf        78.135    
 0.006      1.         0.5999     3.         Inf        124.73    
 0.006      1.         0.59988    2.         0.0064776  134.88    
 0.006      1.         0.59986    2.         0.0064663  0.0065245 
 0.0060005  0.99954    0.22585    6.         0.0060364  0.0060385 
 0.0060008  0.99919    0.04155    2.         0.0071442  0.0072482 
 0.0060012  0.99885   -0.088477   2.         0.026471   0.090542  
 0.0060014  0.99862   -0.15243    2.         0.020942   0.037308  
 0.0060016  0.99839   -0.20326    2.         0.01858    0.036207  
 0.006002   0.99802   -0.2653     2.         0.019481   0.035397  
 0.0060024  0.99764   -0.30778    2.         0.025094   0.065669  
 0.0060029  0.99708   -0.34822    2.         0.060636   0.056269  
 0.0060035  0.99652   -0.37093    2.         0.035538   0.061691  
 0.006004   0.99596   -0.38368    2.         0.0359     0.050123  
 0.0060049  0.99506   -0.39383    2.         0.045807   0.056288  
 0.0060058  0.99415   -0.39766    2.         0.076045   0.090477  
 0.0060073  0.99266   -0.39966    3.         0.096843   0.10815   
 0.0060088  0.99117   -0.39995    3.         0.079567   0.11714   
 0.0060118  0.9882    -0.40002    3.         0.095493   0.23322   
 0.0060164  0.98361   -0.40001    3.         0.14573    0.26435   
 0.0060276  0.97242   -0.40004    3.         0.40523    0.49777   
 0.0060594  0.94064   -0.40017    3.         0.80591    0.90414   
 0.0061631  0.83694   -0.40132    3.         2.8218     4.9188    
 0.0064371  0.56287   -0.40951    3.         6.0529     8.5303    
 0.0067112  0.2888    -0.42522    3.         12.88      15.882    
 0.0069853  0.014735  -0.44844    3.         Inf        Inf       
 0.007      0.        -0.4499     3.         2.9146     10.162    
 0.007      0.        -0.44988    2.         0.007      0.039     
 0.007      0.        -0.44986    2.         0.007      0.0071314 
 0.007      0.        -0.44675    2.         Inf        Inf       
 0.0070003  0.        -0.19132    2.         Inf        Inf       
 0.0070006  0.        -0.0013542  2.         Inf        Inf       
 0.0070009  0.         0.13993    2.         Inf        Inf       
 0.0070012  0.         0.24502    2.         Inf        Inf       
 0.0070015  0.         0.32317    2.         Inf        Inf       
 0.0070018  0.         0.3813     2.         Inf        Inf       
 0.0070023  0.         0.44772    2.         Inf        Inf       
 0.0070027  0.         0.48799    2.         Inf        Inf       
 0.0070032  0.         0.5124     2.         Inf        Inf       
 0.007004   0.         0.53369    2.         Inf        Inf       
 0.0070048  0.         0.54292    2.         Inf        Inf       
 0.0070061  0.         0.54835    2.         Inf        Inf       
 0.0070073  0.         0.54961    2.         Inf        Inf       
 0.0070095  0.         0.55002    2.         Inf        Inf       
 0.0070118  0.         0.55       2.         Inf        Inf       
 0.0070178  0.         0.55       2.         Inf        Inf       
 0.00703    0.         0.55       3.         Inf        Inf       
 0.0070795  0.         0.55       3.         Inf        Inf       
 0.007345   0.         0.55       3.         Inf        Inf       
 0.00823    0.         0.55       3.         Inf        Inf       
 0.01       0.         0.55       3.         Inf        Inf       
Gnucap   System status
iterations: op=0, dc=0, tran=524, fourier=0, total=715
transient timesteps: accepted=188, rejected=3, total=191
nodes: user=2, subckt=0, model=0, total=2
dctran density=100.0%, ac density=100.0%
#Time       v(n1)      v(out)     iter(0)    timef(dut._b_ddt_1_p_ddt_1_n) timef(dut._b_idt_0_p_idt_0_n) timef(dut._b_sp_sn)
 0.         0.         0.         3.         Inf        Inf        Inf       
 20.p       10.n       9.9998u    3.         30.p       12.u       Inf       
 31.p       15.5n      15.5u      3.         159.25u    26.038n    Inf       
 1.0549n    527.47n    527.2u     3.         6.6879u    6.1313n    Inf       
 2.959n     1.4795u    0.0014773  3.         48.911u    0.0010112  Inf       
 36.08n     18.04u     0.01772    3.         385.78u    0.0029383  Inf       
 103.38n    51.688u    0.049119   3.         0.0014053  0.0041603  Inf       
 210.33n    105.17u    0.094897   3.         0.0036566  Inf        Inf       
 317.29n    158.65u    0.13603    3.         0.0064916  0.0062917  Inf       
 478.35n    239.17u    0.19028    3.         0.0075063  0.007954   Inf       
 639.4n     319.7u     0.23645    3.         0.0066022  0.010095   Inf       
 800.46n    400.23u    0.27574    3.         0.0071491  0.0084592  Inf       
 961.52n    480.76u    0.30917    3.         0.0095748  0.013786   Inf       
 1.2088u    604.38u    0.35117    3.         0.011812   0.014306   Inf       
 1.456u     728.u      0.38394    3.         0.0089381  0.016974   Inf       
 1.7032u    851.62u    0.40949    3.         0.0078195  0.017554   Inf       
 1.9505u    975.23u    0.42943    3.         0.0074878  0.018378   Inf       
 2.1977u    0.0010989  0.44498    3.         0.0085132  0.012168   Inf       
 2.6003u    0.0013001  0.46346    3.         0.037984   0.014367   Inf       
 3.0029u    0.0015014  0.47575    3.         0.010248   0.01717    Inf       
 3.4055u    0.0017027  0.48393    3.         0.010745   Inf        Inf       
 3.808u     0.001904   0.48938    3.         0.015083   0.032474   Inf       
 4.4607u    0.0022303  0.49471    3.         0.027202   0.079915   Inf       
 5.1133u    0.0025566  0.49743    3.         0.024634   0.028487   Inf       
 5.7659u    0.002883   0.49883    3.         0.024335   0.027033   Inf       
 6.8565u    0.0034283  0.49988    3.         0.026521   0.035858   Inf       
 7.9471u    0.0039736  0.50023    3.         0.039753   0.054935   Inf       
 9.8972u    0.0049486  0.50045    3.         0.07592    0.051884   Inf       
 11.847u    0.0059236  0.50055    3.         0.085853   0.072023   Inf       
 16.416u    0.0082082  0.50078    3.         0.15858    0.12834    Inf       
 24.586u    0.012293   0.50119    3.         0.19562    0.28156    Inf       
 74.463u    0.037232   0.50381    3.         0.65864    1.828      Inf       
 525.62u    0.26281    0.53311    3.         4.4437     Inf        Inf       
 0.002      1.         0.69985    3.         41.721     41.117     Inf       
 0.002      1.         0.69985    2.         0.0022841  0.48626    Inf       
 0.002      1.         0.69984    2.         0.0020008  0.0022276  Inf       
 0.002      1.         0.69942    6.         0.002      Inf        Inf       
 0.002      1.         0.69914    2.         Inf        Inf        Inf       
 0.002      1.         0.696      2.         Inf        Inf        Inf       
 0.0020002  1.         0.59392    2.         Inf        Inf        Inf       
 0.0020005  1.         0.51286    2.         Inf        Inf        Inf       
 0.0020007  1.         0.44848    2.         Inf        Inf        Inf       
 0.0020009  1.         0.39736    2.         Inf        Inf        Inf       
 0.0020012  1.         0.35677    2.         Inf        Inf        Inf       
 0.0020014  1.         0.32453    2.         Inf        Inf        Inf       
 0.0020016  1.         0.29893    2.         Inf        Inf        Inf       
 0.0020018  1.         0.27861    2.         Inf        Inf        Inf       
 0.0020021  1.         0.26247    2.         Inf        Inf        Inf       
 0.0020023  1.         0.24966    2.         Inf        Inf        Inf       
 0.0020027  1.         0.23482    2.         Inf        Inf        Inf       
 0.002003   1.         0.22445    2.         Inf        Inf        Inf       
 0.0020034  1.         0.2172     2.         Inf        Inf        Inf       
 0.0020037  1.         0.21214    2.         Inf        Inf        Inf       
 0.0020041  1.         0.20861    2.         Inf        Inf        Inf       
 0.0020046  1.         0.20506    2.         Inf        Inf        Inf       
 0.0020052  1.         0.20307    2.         Inf        Inf        Inf       
 0.0020057  1.         0.20198    2.         Inf        Inf        Inf       
 0.0020066  1.         0.20117    2.         Inf        Inf        Inf       
 0.0020074  1.         0.20089    2.         Inf        Inf        Inf       
 0.0020088  1.         0.20083    2.         Inf        Inf        Inf       
 0.0020102  1.         0.20092    2.         Inf        Inf        Inf       
 0.0020127  1.         0.20117    3.         Inf        Inf        Inf       
 0.0020153  1.         0.20143    3.         Inf        Inf        Inf       
 0.0020233  1.         0.20223    3.         Inf        Inf        Inf       
 0.0020414  1.         0.20404    3.         Inf        Inf        Inf       
 0.0021026  1.         0.21016    3.         Inf        Inf        Inf       
 0.0023846  1.         0.23836    3.         Inf        Inf        Inf       
 0.0033365  1.         0.33355    3.         Inf        32.283     Inf       
 0.006      1.         0.5999     3.         Inf        54.461     Inf       
 0.006      1.         0.59988    2.         0.006268   83.815     Inf       
 0.006      1.         0.59986    2.         0.0062823  0.0062907  Inf       
 0.0060002  0.99979    0.40986    6.         0.0060147  0.0060155  Inf       
 0.0060004  0.99958    0.25597    2.         0.0063709  0.0064045  Inf       
 0.0060006  0.99937    0.13131    2.         0.012301   0.014621   Inf       
 0.0060008  0.99921    0.052314   2.         0.011231   0.015372   Inf       
 0.006001   0.99905   -0.01494    2.         0.011471   0.021261   Inf       
 0.0060011  0.99894   -0.053581   2.         0.015242   0.011668   Inf       
 0.0060012  0.99884   -0.088345   2.         0.011754   0.010854   Inf       
 0.0060013  0.99873   -0.11962    2.         0.0091704  Inf        Inf       
 0.0060014  0.99857   -0.16194    2.         0.0092418  0.011533   Inf       
 0.0060016  0.99841   -0.19786    2.         0.010962   0.01259    Inf       
 0.0060018  0.99824   -0.22837    2.         Inf        Inf        Inf       
 0.0060019  0.99808   -0.25427    2.         0.013773   0.24933    Inf       
 0.0060022  0.99783   -0.28702    2.         0.011867   0.013958   Inf       
 0.0060024  0.99757   -0.3124     2.         0.012286   0.015412   Inf       
 0.0060027  0.99732   -0.33208    2.         0.014356   Inf        Inf       
