#           v(in)      v(out)     iter(0)   
 0.         0.         0.         0.        
-1.        -10.       -10.        1.        
-2.        -10.       -10.        2.        
-10.       -10.       -10.        3.        
 0.        -10.       -10.        0.        
-1.        -8.        -8.         1.        
-2.        -8.        -8.         2.        
-8.        -8.        -8.         3.        
 0.        -8.        -8.         0.        
-1.        -6.        -6.         1.        
-2.        -6.        -6.         2.        
-6.        -6.        -6.         3.        
 0.        -6.        -6.         0.        
-1.        -4.        -4.         1.        
-2.        -4.        -4.         2.        
-4.        -4.        -4.         3.        
 0.        -4.        -4.         0.        
-1.        -2.        -2.         1.        
-2.        -2.        -2.         2.        
-2.        -2.        -2.         3.        
 0.        -2.        -2.         0.        
-1.         0.         0.         1.        
-2.         0.         0.         2.        
 0.         0.         0.         3.        
 0.         0.         0.         0.        
-1.         2.         2.         1.        
-2.         2.         2.         2.        
 2.         2.         2.         3.        
 0.         2.         2.         0.        
-1.         4.         4.         1.        
-2.         4.         4.         2.        
 4.         4.         4.         3.        
 0.         4.         4.         0.        
-1.         6.         6.         1.        
-2.         6.         6.         2.        
 6.         6.         6.         3.        
 0.         6.         6.         0.        
-1.         8.         8.         1.        
-2.         8.         8.         2.        
 8.         8.         8.         3.        
 0.         8.         8.         0.        
-1.         10.        10.        1.        
-2.         10.        10.        2.        
 10.        10.        10.        3.        
#Time       v(in)      v(out)     iter(0)   
 0.         0.         0.         2.        
 249.n      1.5645u    389.46p    15.       
 1.022u     6.4214u    3.4745n    6.        
 1.795u     11.278u    10.31n     3.        
 2.568u     16.135u    20.893n    3.        
 10.689u    67.157u    357.54n    3.        
 25.849u    162.41u    2.0792u    3.        
 56.345u    354.02u    9.773u     3.        
 106.33u    668.08u    34.218u    3.        
 184.32u    0.0011581  100.19u    3.        
 262.3u     0.0016481  197.98u    3.        
 411.52u    0.0025857  464.44u    3.        
 560.74u    0.0035232  824.08u    3.        
 820.6u     0.0051559  0.0016326  3.        
 0.0010805  0.0067886  0.0026306  3.        
 0.0015102  0.0094886  0.0045789  3.        
 0.0019399  0.012189   0.0067931  3.        
 0.0026597  0.01671    0.010845   3.        
 0.0033794  0.021232   0.015146   3.        
 0.0046897  0.029462   0.023222   3.        
 0.0060001  0.037691   0.031419   3.        
 0.0089406  0.056146   0.049869   3.        
 0.013901   0.08723    0.080968   3.        
 0.026693   0.16693    0.16072    3.        
 0.058247   0.35786    0.35195    3.        
 0.10733    0.62441    0.61942    3.        
 0.15641    0.83204    0.82851    3.        
 0.2055     0.96116    0.95936    3.        
 0.27912    0.9833     0.98442    3.        
 0.35275    0.79874    0.80257    3.        
 0.5        69.833n    0.0069833  3.        
Gnucap   System status
iterations: op=0, dc=33, tran=107, fourier=0, total=176
transient timesteps: accepted=31, rejected=5, total=36
nodes: user=2, subckt=0, model=0, total=2
dctran density=100.0%, ac density=100.0%
