pid0 #(.p(.1),.i(100),.d(1m)) dut (.sp(0),.sn(out),.cp(n1),.cn(0));
// pid0 #(.d(1m)) dut (out, 0, n1, 0); 
capacitor #(.c(1u)) c (.p(out),.n(0));
resistor #(.r(1)) r (.p(out),.n(0));
#Time       v(n1)      v(out)     iter(0)    timef(dut._b_ddt_1_p_ddt_1_n) timef(dut._b_idt_0_p_idt_0_n)
 0.         0.         0.         3.         Inf        Inf       
 20.p       10.n       9.9998u    3.         30.p       84.u      
 31.p       15.5n      15.5u      3.         421.32u    68.839n   
 2.7401n    1.3701u    0.0013682  3.         24.339u    16.089n   
 9.6235n    4.8117u    0.0047887  3.         243.89u    Inf       
 26.357n    13.178u    0.013006   3.         539.57u    0.0050616 
 43.09n     21.545u    0.021088   3.         918.41u    Inf       
 59.823n    29.912u    0.029035   3.         899.66u    0.0039541 
 76.556n    38.278u    0.03685    3.         896.32u    0.0039541 
 93.289n    46.645u    0.044536   3.         0.0026825  0.0036707 
 110.02n    55.011u    0.052094   3.         892.77u    Inf       
 126.76n    63.378u    0.059527   3.         978.52u    0.0020671 
 143.49n    71.745u    0.066837   3.         0.0016188  0.0016311 
 160.22n    80.111u    0.074025   3.         Inf        0.001463  
 176.96n    88.478u    0.081094   3.         Inf        0.0017918 
 193.69n    96.844u    0.088045   3.         Inf        0.0026044 
 210.42n    105.21u    0.094882   3.         0.0014598  0.0018535 
 227.15n    113.58u    0.1016     3.         943.46u    0.0014723 
 254.03n    127.02u    0.11217    3.         0.001024   0.0054274 
 280.91n    140.45u    0.12246    3.         0.0019344  0.0019058 
 307.79n    153.89u    0.13247    3.         0.0026333  0.0021255 
 334.66n    167.33u    0.14222    3.         Inf        0.0039536 
 361.54n    180.77u    0.15171    3.         0.0022478  0.0041626 
 404.32n    202.16u    0.16629    3.         0.0021226  0.0026889 
 447.1n     223.55u    0.18027    3.         0.0032134  0.0042139 
 489.88n    244.94u    0.19366    3.         Inf        0.0038401 
 532.65n    266.33u    0.2065     3.         Inf        0.0041895 
 575.43n    287.72u    0.21879    3.         Inf        0.005718  
 643.52n    321.76u    0.23731    3.         0.0051304  0.0057146 
 711.6n     355.8u     0.25461    3.         0.0043318  0.022347  
 779.69n    389.84u    0.27077    3.         Inf        Inf       
 847.78n    423.89u    0.28586    3.         0.0037298  Inf       
 915.86n    457.93u    0.29997    3.         0.0033435  0.011466  
 1.0242u    512.11u    0.32053    3.         0.0040931  0.0067891 
 1.1326u    566.3u     0.33899    3.         0.0065462  0.0078234 
 1.241u     620.48u    0.35554    3.         0.008427   0.015075  
 1.3493u    674.66u    0.3704     3.         0.0060464  0.01594   
 1.4577u    728.84u    0.38373    3.         0.0052396  0.016783  
 1.6302u    815.08u    0.4022     3.         0.0059046  0.016194  
 1.8026u    901.32u    0.41775    3.         0.0084449  0.021216  
 1.9751u    987.56u    0.43082    3.         1.8905K    0.034604  
 2.1476u    0.0010738  0.44182    3.         0.011269   0.014624  
 2.3201u    0.00116    0.45108    3.         0.013237   0.013357  
 2.5946u    0.0012973  0.46292    3.         0.015241   0.019077  
 2.8691u    0.0014345  0.4719     3.         0.013362   0.023017  
 3.1436u    0.0015718  0.47872    3.         0.016096   0.021783  
 3.4181u    0.0017091  0.4839     3.         0.02387    Inf       
 3.6926u    0.0018463  0.48783    3.         Inf        0.024251  
 4.1295u    0.0020648  0.49226    3.         0.070923   0.033519  
 4.5664u    0.0022832  0.49511    3.         0.031403   Inf       
 5.0033u    0.0025017  0.49695    3.         0.027486   0.06078   
 5.4402u    0.0027201  0.49814    3.         0.03561    0.037869  
 5.8771u    0.0029386  0.49891    3.         Inf        0.034155  
 6.5725u    0.0032863  0.49963    3.         0.049309   0.040051  
 7.2679u    0.003634   0.5        3.         0.036262   0.052329  
 7.9633u    0.0039816  0.5002     3.         0.035072   Inf       
 8.6587u    0.0043293  0.50031    3.         0.038094   0.053337  
 9.3541u    0.004677   0.50038    3.         0.052583   0.04641   
 10.461u    0.0052304  0.50047    3.         0.083397   0.059607  
 11.568u    0.0057838  0.50053    3.         0.090736   0.22885   
 12.674u    0.0063372  0.50059    3.         Inf        0.088129  
 13.781u    0.0068905  0.50064    3.         Inf        0.093188  
 14.888u    0.0074439  0.5007     3.         0.098747   0.10299   
 16.649u    0.0083246  0.50079    3.         0.084227   0.11036   
 18.411u    0.0092053  0.50088    3.         0.095263   0.16256   
 20.172u    0.010086   0.50097    3.         0.11081    0.16786   
 21.933u    0.010967   0.50106    3.         0.11395    0.26409   
 23.695u    0.011847   0.50115    3.         0.11692    0.16198   
 26.498u    0.013249   0.50129    3.         0.14331    0.35724   
 29.301u    0.01465    0.50144    3.         0.22982    0.25499   
 32.104u    0.016052   0.50158    3.         Inf        0.2542    
 34.907u    0.017454   0.50172    3.         Inf        0.26879   
 37.71u     0.018855   0.50187    3.         Inf        0.5116    
 42.172u    0.021086   0.5021     3.         0.39858    0.5278    
 46.633u    0.023316   0.50233    3.         0.30413    0.55881   
 51.094u    0.025547   0.50257    3.         0.37726    0.47174   
 55.556u    0.027778   0.5028     3.         0.31168    0.49882   
 60.017u    0.030009   0.50304    3.         0.25384    0.41685   
 67.117u    0.033559   0.50342    3.         0.30503    0.5415    
 74.217u    0.037109   0.50379    3.         0.39165    0.96705   
 81.317u    0.040659   0.50418    3.         0.56278    1.6308    
 88.417u    0.044209   0.50456    3.         0.5787     Inf       
 95.517u    0.047759   0.50495    3.         0.5938     Inf       
 106.81u    0.053405   0.50557    3.         0.68737    1.1274    
 118.1u     0.059052   0.5062     3.         0.66399    1.4718    
 129.4u     0.064699   0.50683    3.         0.84809    1.1256    
 140.69u    0.070346   0.50747    3.         0.85802    1.0568    
 151.99u    0.075993   0.50812    3.         1.0921     1.1405    
 169.96u    0.084978   0.50916    3.         1.3545     1.298     
 187.93u    0.093963   0.51022    3.         1.0002     1.9433    
 205.9u     0.10295    0.51129    3.         0.9692     1.5087    
 223.87u    0.11193    0.51239    3.         1.0924     2.9472    
 241.84u    0.12092    0.51349    3.         1.2728     1.5322    
 270.37u    0.13519    0.51528    3.         1.606      1.7684    
 298.9u     0.14945    0.51711    3.         4.5834     2.1423    
 327.44u    0.16372    0.51899    3.         2.7975     2.591     
 355.97u    0.17798    0.5209     3.         2.2831     4.2834    
 384.5u     0.19225    0.52285    3.         2.3426     2.627     
 429.86u    0.21493    0.52604    3.         3.8541     3.4256    
 475.21u    0.23761    0.52933    3.         3.7095     4.0483    
 520.57u    0.26029    0.53273    3.         2.9139     4.2304    
 565.93u    0.28296    0.53622    3.         4.4149     5.4589    
 611.28u    0.30564    0.53983    3.         2.8078     7.315     
 683.5u     0.34175    0.54577    3.         3.6859     6.9443    
 755.72u    0.37786    0.55198    3.         6.874      6.4398    
 827.95u    0.41397    0.55844    3.         4.2703     10.933    
 900.17u    0.45008    0.56517    3.         4.4273     6.4394    
 972.39u    0.48619    0.57216    3.         15.534     6.7794    
 0.0010867  0.54333    0.58375    3.         5.6896     11.17     
 0.0012009  0.60047    0.59599    3.         7.874      10.157    
 0.0013152  0.6576     0.60889    3.         Inf        9.4708    
 0.0014295  0.71474    0.62244    3.         Inf        10.774    
 0.0015438  0.77188    0.63664    3.         9.5705     18.09     
 0.0017237  0.86184    0.66032    3.         8.4117     12.422    
 0.0019036  0.9518     0.68563    3.         10.294     14.53     
 0.002      1.         0.69985    3.         23.326     16.731    
 0.002      1.         0.69985    2.         0.0021146  0.19739   
 0.002      1.         0.69984    2.         0.0020006  0.0021754 
 0.002      1.         0.69918    6.         0.002      Inf       
 0.002      1.         0.69853    2.         Inf        Inf       
 0.0020005  1.         0.48884    2.         Inf        Inf       
 0.0020011  1.         0.36738    2.         Inf        Inf       
 0.0020016  1.         0.29703    2.         Inf        Inf       
 0.0020021  1.         0.2563     2.         Inf        Inf       
 0.0020027  1.         0.23272    2.         Inf        Inf       
 0.0020032  1.         0.21908    2.         Inf        Inf       
 0.0020037  1.         0.2112     2.         Inf        Inf       
 0.0020046  1.         0.20465    2.         Inf        Inf       
 0.0020055  1.         0.20213    2.         Inf        Inf       
 0.0020068  1.         0.2009     2.         Inf        Inf       
 0.0020082  1.         0.20078    2.         Inf        Inf       
 0.0020108  1.         0.20097    3.         Inf        Inf       
 0.0020147  1.         0.20137    3.         Inf        Inf       
 0.0020232  1.         0.20221    3.         Inf        Inf       
 0.0020441  1.         0.20431    3.         Inf        Inf       
 0.0021151  1.         0.21141    3.         Inf        Inf       
 0.0023541  1.         0.23531    3.         Inf        Inf       
 0.0031187  1.         0.31176    3.         Inf        45.797    
 0.006      1.         0.5999     3.         Inf        86.296    
 0.006      1.         0.59988    2.         0.0065279  140.85    
 0.006      1.         0.59986    2.         0.0065786  0.0065709 
 0.0060005  0.99954    0.22899    6.         0.0060363  0.0060384 
 0.0060008  0.9992     0.043549   2.         0.0071383  0.0072417 
 0.0060011  0.99885   -0.087221   2.         0.034903   0.039991  
 0.0060014  0.99863   -0.15117    2.         0.028956   0.040271  
 0.0060016  0.9984    -0.20204    2.         0.03255    0.028314  
 0.006002   0.99802   -0.26426    2.         0.038562   0.025812  
 0.0060023  0.99765   -0.30692    2.         0.032457   0.054908  
 0.0060029  0.99709   -0.34764    2.         0.033849   0.036321  
 0.0060035  0.99653   -0.37054    2.         0.042037   0.04725   
 0.006004   0.99597   -0.38343    2.         0.056966   1.0648    
 0.0060049  0.99507   -0.3937     2.         0.053874   0.069141  
 0.0060058  0.99417   -0.39761    2.         0.066516   0.077968  
 0.0060073  0.99269   -0.39965    3.         0.08412    0.24465   
 0.0060088  0.9912    -0.39995    3.         0.30351    0.13877   
 0.0060117  0.98826   -0.40002    3.         0.12796    0.15667   
 0.0060163  0.98372   -0.40001    3.         0.18188    0.26231   
 0.0060273  0.97275   -0.40004    3.         0.46354    0.5056    
 0.0060583  0.94171   -0.40016    3.         1.5137     0.8916    
 0.0061594  0.84064   -0.40126    3.         2.3972     2.5506    
 0.0064337  0.56631   -0.40936    3.         6.4327     6.5012    
 0.006708   0.29198   -0.425      3.         12.98      21.104    
 0.0069824  0.017646  -0.44815    3.         11.393     Inf       
 0.007      0.        -0.4499     3.         2.5491     8.188     
 0.007      0.        -0.44988    2.         0.007      0.041106  
 0.007      0.        -0.44986    2.         0.007      0.0071395 
 0.007      0.        -0.44635    2.         Inf        Inf       
 0.0070003  0.        -0.19105    2.         Inf        Inf       
 0.0070006  0.        -0.001167   2.         Inf        Inf       
 0.0070009  0.         0.14006    2.         Inf        Inf       
 0.0070012  0.         0.2451     2.         Inf        Inf       
 0.0070015  0.         0.32323    2.         Inf        Inf       
 0.0070018  0.         0.38133    2.         Inf        Inf       
 0.0070023  0.         0.44775    2.         Inf        Inf       
 0.0070027  0.         0.48801    2.         Inf        Inf       
 0.0070032  0.         0.51242    2.         Inf        Inf       
 0.007004   0.         0.5337     2.         Inf        Inf       
 0.0070048  0.         0.54293    2.         Inf        Inf       
 0.0070061  0.         0.54835    2.         Inf        Inf       
 0.0070073  0.         0.54961    2.         Inf        Inf       
 0.0070095  0.         0.55002    2.         Inf        Inf       
 0.0070118  0.         0.55       2.         Inf        Inf       
 0.0070178  0.         0.55       2.         Inf        Inf       
 0.00703    0.         0.55       3.         Inf        Inf       
 0.0070795  0.         0.55       3.         Inf        Inf       
 0.007345   0.         0.55       3.         Inf        Inf       
 0.00823    0.         0.55       3.         Inf        Inf       
 0.01       0.         0.55       3.         Inf        Inf       
Gnucap   System status
iterations: op=0, dc=0, tran=524, fourier=0, total=715
transient timesteps: accepted=188, rejected=3, total=191
nodes: user=2, subckt=0, model=0, total=2
dctran density=100.0%, ac density=100.0%
#Time       v(n1)      v(out)     iter(0)    timef(dut._b_ddt_1_p_ddt_1_n) timef(dut._b_idt_0_p_idt_0_n) timef(dut._b_sp_sn)
 0.         0.         0.         3.         Inf        Inf        Inf       
 20.p       10.n       9.9998u    3.         30.p       12.u       Inf       
 31.p       15.5n      15.5u      3.         159.25u    26.038n    Inf       
 1.0549n    527.47n    527.2u     3.         6.6879u    6.1313n    Inf       
 2.959n     1.4795u    0.0014773  3.         45.271u    883.39u    Inf       
 36.08n     18.04u     0.01772    3.         318.02u    0.0020373  Inf       
 103.38n    51.688u    0.049119   3.         0.0021551  0.0033021  Inf       
 210.33n    105.17u    0.094897   3.         0.0036566  0.0034301  Inf       
 317.29n    158.65u    0.13603    3.         0.0047035  0.0062917  Inf       
 478.35n    239.17u    0.19028    3.         0.005726   0.0072268  Inf       
 639.4n     319.7u     0.23645    3.         0.0056986  0.0060414  Inf       
 800.46n    400.23u    0.27574    3.         0.0056744  0.0076857  Inf       
 961.52n    480.76u    0.30917    3.         0.0060321  0.0095589  Inf       
 1.2088u    604.38u    0.35117    3.         0.0064299  0.0081546  Inf       
 1.456u     728.u      0.38394    3.         0.0085433  0.0081016  Inf       
 1.7032u    851.62u    0.40949    3.         0.0090166  0.0093726  Inf       
 1.9505u    975.23u    0.42943    3.         0.0094335  0.018378   Inf       
 2.1977u    0.0010989  0.44498    3.         0.0098165  0.025072   Inf       
 2.6003u    0.0013001  0.46346    3.         0.011062   0.017778   Inf       
 3.0029u    0.0015014  0.47575    3.         0.016484   Inf        Inf       
 3.4055u    0.0017027  0.48393    3.         0.017997   0.030143   Inf       
 3.808u     0.001904   0.48938    3.         0.01868    0.018719   Inf       
 4.4607u    0.0022303  0.49471    3.         0.019186   0.021146   Inf       
 5.1133u    0.0025566  0.49743    3.         0.057552   0.031151   Inf       
 5.7659u    0.002883   0.49883    3.         0.035095   0.031989   Inf       
 6.8565u    0.0034283  0.49988    3.         0.039791   0.033657   Inf       
 7.9471u    0.0039736  0.50023    3.         0.037044   0.055934   Inf       
 9.8972u    0.0049486  0.50045    3.         0.051785   0.1527     Inf       
 11.847u    0.0059236  0.50055    3.         0.06371    0.1155     Inf       
 16.416u    0.0082082  0.50078    3.         0.093733   0.15896    Inf       
 24.586u    0.012293   0.50119    3.         0.19043    0.23526    Inf       
 74.463u    0.037232   0.50381    3.         Inf        1.006      Inf       
 525.62u    0.26281    0.53311    3.         Inf        13.527     Inf       
 0.002      1.         0.69985    3.         Inf        41.117     Inf       
 0.002      1.         0.69985    2.         0.0022841  0.48625    Inf       
 0.002      1.         0.69984    2.         0.0020008  0.0022276  Inf       
 0.002      1.         0.69943    6.         0.002      Inf        Inf       
 0.002      1.         0.69914    2.         Inf        Inf        Inf       
 0.002      1.         0.69601    2.         Inf        Inf        Inf       
 0.0020002  1.         0.59432    2.         Inf        Inf        Inf       
 0.0020005  1.         0.51348    2.         Inf        Inf        Inf       
 0.0020007  1.         0.44922    2.         Inf        Inf        Inf       
 0.0020009  1.         0.39814    2.         Inf        Inf        Inf       
 0.0020011  1.         0.35753    2.         Inf        Inf        Inf       
 0.0020014  1.         0.32526    2.         Inf        Inf        Inf       
 0.0020016  1.         0.29961    2.         Inf        Inf        Inf       
 0.0020018  1.         0.27922    2.         Inf        Inf        Inf       
 0.0020021  1.         0.26302    2.         Inf        Inf        Inf       
 0.0020023  1.         0.25014    2.         Inf        Inf        Inf       
 0.0020026  1.         0.23519    2.         Inf        Inf        Inf       
 0.002003   1.         0.22472    2.         Inf        Inf        Inf       
 0.0020034  1.         0.21741    2.         Inf        Inf        Inf       
 0.0020037  1.         0.21229    2.         Inf        Inf        Inf       
 0.0020041  1.         0.20872    2.         Inf        Inf        Inf       
 0.0020046  1.         0.20513    2.         Inf        Inf        Inf       
 0.0020052  1.         0.20312    2.         Inf        Inf        Inf       
 0.0020057  1.         0.202      2.         Inf        Inf        Inf       
 0.0020066  1.         0.20118    2.         Inf        Inf        Inf       
 0.0020074  1.         0.20089    2.         Inf        Inf        Inf       
 0.0020088  1.         0.20082    2.         Inf        Inf        Inf       
 0.0020101  1.         0.20092    2.         Inf        Inf        Inf       
 0.0020127  1.         0.20116    3.         Inf        Inf        Inf       
 0.0020152  1.         0.20142    3.         Inf        Inf        Inf       
 0.002023   1.         0.2022     3.         Inf        Inf        Inf       
 0.0020405  1.         0.20395    3.         Inf        Inf        Inf       
 0.0020999  1.         0.20989    3.         Inf        Inf        Inf       
 0.0023723  1.         0.23713    3.         Inf        Inf        Inf       
 0.0033258  1.         0.33248    3.         Inf        32.081     Inf       
 0.006      1.         0.5999     3.         Inf        59.943     Inf       
 0.006      1.         0.59988    2.         0.0062687  75.886     Inf       
 0.006      1.         0.59986    2.         0.0062833  0.0062911  Inf       
 0.0060002  0.99979    0.41277    6.         0.0060146  0.0060154  Inf       
 0.0060004  0.99959    0.26069    2.         0.0063667  0.0064     Inf       
 0.0060006  0.99938    0.13706    2.         0.013804   Inf        Inf       
 0.0060008  0.99922    0.056875   2.         0.017054   0.015995   Inf       
 0.0060009  0.99906   -0.011339   2.         0.013424   0.018492   Inf       
 0.0060011  0.99895   -0.051331   2.         0.012229   0.012663   Inf       
 0.0060012  0.99884   -0.087208   2.         0.014078   0.010678   Inf       
 0.0060013  0.99873   -0.11939    2.         Inf        0.010455   Inf       
 0.0060014  0.99857   -0.16165    2.         0.022903   0.011836   Inf       
 0.0060016  0.99841   -0.19754    2.         0.023673   0.012449   Inf       
 0.0060018  0.99824   -0.22803    2.         Inf        0.012688   Inf       
 0.0060019  0.99808   -0.25393    2.         Inf        0.012688   Inf       
 0.0060022  0.99783   -0.28672    2.         0.016402   0.013433   Inf       
 0.0060024  0.99758   -0.31215    2.         0.013848   0.03105    Inf       
 0.0060027  0.99732   -0.33187    2.         0.013584   0.016384   Inf       
