#           v(in)      v(out)     i(dut._nb_B) i(dut._b_ddt_0_p_ddt_0_n) iter(0)   
-10.       -10.       -10.        0.         0.         3.        
-8.        -8.        -8.         0.         0.         3.        
-6.        -6.        -6.         0.         0.         3.        
-4.        -4.        -4.         0.         0.         3.        
-2.        -2.        -2.         0.         0.         3.        
 0.         0.         0.         0.         0.         3.        
 2.         2.         2.         0.         0.         3.        
 4.         4.         4.         0.         0.         3.        
 6.         6.         6.         0.         0.         3.        
 8.         8.         8.         0.         0.         3.        
 10.        10.        10.        0.         0.         3.        
#Time       v(in)      v(out)     iter(0)   
 0.         0.         0.         2.        
 249.n      1.5645u    389.46p    15.       
 786.n      4.9385u    2.1348n    3.        
 1.323u     8.3126u    5.6907n    3.        
 1.86u      11.687u    11.056n    3.        
 7.149u     44.918u    160.29n    3.        
 18.763u    117.89u    1.0984u    3.        
 42.974u    270.01u    5.7117u    3.        
 84.679u    532.05u    21.862u    3.        
 151.36u    951.02u    68.303u    3.        
 218.04u    0.00137    138.78u    3.        
 349.53u    0.0021961  341.65u    3.        
 481.02u    0.0030223  621.41u    3.        
 713.57u    0.0044834  0.0012738  3.        
 946.12u    0.0059446  0.0020946  3.        
 0.0013324  0.0083715  0.0037339  3.        
 0.0017187  0.010798   0.0056281  3.        
 0.0023599  0.014827   0.0091169  3.        
 0.0030012  0.018856   0.012868   3.        
 0.0041385  0.026      0.019799   3.        
 0.0052758  0.033143   0.026884   3.        
 0.0076774  0.04822    0.04194    3.        
 0.011494   0.072155   0.065886   3.        
 0.020064   0.12573    0.11949    3.        
 0.040931   0.25435    0.24825    3.        
 0.082664   0.49636    0.49083    3.        
 0.1244     0.70443    0.69993    3.        
 0.187      0.92267    0.92013    3.        
 0.2496     1.         0.99998    3.        
 0.3122     0.9246     0.92695    3.        
 0.4061     0.55636    0.56179    3.        
 0.5        63.973n    0.0063974  3.        
Gnucap   System status
iterations: op=0, dc=33, tran=107, fourier=0, total=176
transient timesteps: accepted=32, rejected=4, total=36
nodes: user=2, subckt=0, model=0, total=2
dctran density=100.0%, ac density=100.0%
