pid0a #(.p(.1),.i(100),.d(1m)) dut (.sp(0),.sn(out),.cp(n1),.cn(0));
// pid0a #(.d(1m)) dut (out, 0, n1, 0); 
capacitor #(.c(1u)) c (.p(out),.n(0));
resistor #(.r(1)) r (.p(out),.n(0));
#Time       v(n1)      v(out)     iter(0)    timef(dut._b_ddt_1_p_ddt_1_n) timef(dut._b_idt_0_p_idt_0_n)
 0.         0.         0.         3.         Inf        Inf       
 20.p       10.n       9.9998u    3.         30.p       840.02n   
 30.p       15.n       15.u       3.         Inf        7.1293n   
 2.78n      1.39u      0.0013881  3.         Inf        5.6383n   
 5.53n      2.765u     0.0027574  3.         Inf        473.3u    
 22.26n     11.13u     0.011007   3.         847.08u    809.22u   
 38.99n     19.495u    0.01912    3.         928.81u    0.0013835 
 55.72n     27.86u     0.027099   3.         0.0012529  Inf       
 72.45n     36.225u    0.034945   3.         0.0019723  Inf       
 89.18n     44.59u     0.042661   3.         Inf        0.0014737 
 105.91n    52.955u    0.050249   3.         Inf        0.0016092 
 122.64n    61.32u     0.057711   3.         Inf        0.0016919 
 139.37n    69.685u    0.065049   3.         Inf        0.0012682 
 156.1n     78.05u     0.072265   3.         Inf        0.0014451 
 172.83n    86.415u    0.079362   3.         Inf        Inf       
 189.56n    94.78u     0.086341   3.         Inf        0.0055777 
 206.29n    103.15u    0.093204   3.         Inf        0.0020752 
 223.02n    111.51u    0.099954   3.         Inf        0.0017745 
 249.41n    124.71u    0.11037    3.         Inf        0.0029469 
 275.8n     137.9u     0.12052    3.         Inf        0.0020868 
 302.19n    151.1u     0.13041    3.         Inf        0.0018384 
 328.58n    164.29u    0.14003    3.         Inf        0.0021656 
 354.97n    177.49u    0.14941    3.         0.0021825  0.0047424 
 396.97n    198.49u    0.16383    3.         0.0018261  0.0040276 
 438.97n    219.49u    0.17766    3.         0.0020474  0.0088034 
 480.97n    240.49u    0.19092    3.         0.0021139  0.0053813 
 522.97n    261.48u    0.20364    3.         0.001899   Inf       
 564.97n    282.49u    0.21583    3.         0.0021129  0.0034057 
 631.82n    315.91u    0.23421    3.         0.0035282  0.0032752 
 698.67n    349.34u    0.25141    3.         0.0052883  0.0044139 
 765.52n    382.76u    0.26749    3.         0.0039507  0.0065099 
 832.37n    416.19u    0.28254    3.         0.0040626  0.0067751 
 899.22n    449.61u    0.29661    3.         0.0047717  0.0068764 
 1.0056u    502.81u    0.31716    3.         0.005085   0.0061393 
 1.112u     556.01u    0.33564    3.         0.0062006  0.0091114 
 1.2184u    609.21u    0.35225    3.         0.010928   0.0099002 
 1.3248u    662.41u    0.36718    3.         Inf        0.012593  
 1.4312u    715.61u    0.38061    3.         Inf        0.0095174 
 1.6006u    800.28u    0.39926    3.         Inf        0.010349  
 1.7699u    884.95u    0.415      3.         Inf        0.013226  
 1.9392u    969.62u    0.42828    3.         Inf        0.014001  
 2.1086u    0.0010543  0.4395     3.         Inf        Inf       
 2.2779u    0.001139   0.44896    3.         Inf        0.016547  
 2.5475u    0.0012737  0.46111    3.         Inf        0.022812  
 2.817u     0.0014085  0.47038    3.         Inf        0.01839   
 3.0865u    0.0015433  0.47745    3.         0.022972   0.024904  
 3.356u     0.001678   0.48284    3.         0.01638    0.027317  
 3.6256u    0.0018128  0.48696    3.         0.016807   0.026182  
 4.0545u    0.0020273  0.49163    3.         0.026715   0.032651  
 4.4835u    0.0022418  0.49466    3.         Inf        0.062345  
 4.9125u    0.0024563  0.49663    3.         0.033624   0.042477  
 5.3415u    0.0026707  0.49791    3.         0.023975   0.068486  
 5.7705u    0.0028852  0.49875    3.         0.02816    0.034785  
 6.4532u    0.0032266  0.49954    3.         0.036365   0.042758  
 7.136u     0.003568   0.49995    3.         0.039566   0.060867  
 7.8188u    0.0039094  0.50017    3.         0.049318   0.055111  
 8.5015u    0.0042508  0.50029    3.         0.044092   0.05969   
 9.1843u    0.0045921  0.50037    3.         0.064638   0.09739   
 10.271u    0.0051355  0.50045    3.         0.073777   0.075436  
 11.358u    0.0056788  0.50052    3.         0.053166   0.19211   
 12.444u    0.0062221  0.50057    3.         0.050975   0.085044  
 13.531u    0.0067655  0.50063    3.         0.060002   0.10085   
 14.618u    0.0073088  0.50069    3.         0.097724   0.15224   
 16.347u    0.0081735  0.50077    3.         Inf        0.14956   
 18.076u    0.0090382  0.50086    3.         Inf        0.22236   
 19.806u    0.0099029  0.50095    3.         Inf        0.17588   
 21.535u    0.010768   0.50104    3.         Inf        0.2952    
 23.264u    0.011632   0.50113    3.         0.14303    0.24669   
 26.017u    0.013008   0.50127    3.         0.12042    0.19219   
 28.769u    0.014384   0.50141    3.         0.14582    0.22897   
 31.521u    0.015761   0.50155    3.         0.25421    Inf       
 34.273u    0.017137   0.50169    3.         Inf        0.3729    
 37.026u    0.018513   0.50183    3.         Inf        0.34298   
 41.405u    0.020702   0.50206    3.         Inf        0.39235   
 45.784u    0.022892   0.50229    3.         0.34648    0.83417   
 50.164u    0.025082   0.50252    3.         0.25884    0.45854   
 54.543u    0.027271   0.50275    3.         0.26616    0.44741   
 58.922u    0.029461   0.50298    3.         0.27311    0.78714   
 65.893u    0.032947   0.50335    3.         0.26228    Inf       
 72.865u    0.036432   0.50372    3.         0.31591    1.3276    
 79.836u    0.039918   0.5041     3.         0.54643    0.97127   
 86.807u    0.043404   0.50447    3.         Inf        Inf       
 93.779u    0.046889   0.50485    3.         Inf        0.86871   
 104.87u    0.052436   0.50546    3.         Inf        0.97038   
 115.97u    0.057983   0.50608    3.         Inf        1.0066    
 127.06u    0.063529   0.5067     3.         Inf        1.2126    
 138.15u    0.069076   0.50733    3.         Inf        0.94259   
 149.24u    0.074622   0.50796    3.         Inf        1.1258    
 166.9u     0.083449   0.50898    3.         Inf        1.7479    
 184.55u    0.092276   0.51002    3.         Inf        1.5237    
 202.21u    0.1011     0.51107    3.         1.5047     1.6923    
 219.86u    0.10993    0.51214    3.         1.0729     1.8181    
 237.51u    0.11876    0.51322    3.         1.1009     2.2001    
 265.57u    0.13278    0.51498    3.         1.7494     2.6938    
 293.62u    0.14681    0.51677    3.         Inf        2.6742    
 321.67u    0.16084    0.5186     3.         Inf        2.4499    
 349.73u    0.17486    0.52048    3.         2.262      2.5054    
 377.78u    0.18889    0.52239    3.         1.6194     2.446     
 422.33u    0.21116    0.5255     3.         1.753      2.9999    
 466.87u    0.23344    0.52872    3.         2.2478     3.9135    
 511.42u    0.25571    0.53203    3.         2.8849     3.7078    
 555.97u    0.27798    0.53545    3.         4.2343     3.9201    
 600.52u    0.30026    0.53896    3.         Inf        4.1268    
 671.19u    0.33559    0.54474    3.         Inf        4.1779    
 741.86u    0.37093    0.55076    3.         Inf        4.748     
 812.53u    0.40627    0.55704    3.         Inf        10.119    
 883.21u    0.4416     0.56357    3.         Inf        5.7669    
 953.88u    0.47694    0.57034    3.         Inf        6.0706    
 0.0010656  0.53278    0.58156    3.         Inf        9.0746    
 0.0011772  0.58862    0.5934     3.         Inf        9.7742    
 0.0012889  0.64446    0.60586    3.         Inf        13.255    
 0.0014006  0.7003     0.61895    3.         Inf        12.181    
 0.0015123  0.75614    0.63266    3.         Inf        10.176    
 0.0016891  0.84455    0.65565    3.         Inf        11.025    
 0.0018659  0.93297    0.6802     3.         Inf        13.527    
 0.002      1.         0.69985    3.         Inf        36.07     
 0.002      1.         0.69985    2.         0.0021326  0.057199  
 0.0020044  1.         0.013551   6.         0.0020371  0.0022026 
 0.0020054  1.         0.1428     8.         0.0020165  0.0065977 
 0.0020062  1.         0.17319    2.         Inf        0.12801   
 0.0020067  1.         0.18482    2.         Inf        0.070899  
 0.0020072  1.         0.19154    2.         Inf        0.077639  
 0.0020081  1.         0.19697    2.         Inf        0.12322   
 0.0020089  1.         0.19925    2.         Inf        0.12924   
 0.0020103  1.         0.20068    2.         Inf        0.14626   
 0.0020118  1.         0.20103    2.         Inf        0.14241   
 0.0020145  1.         0.20136    3.         Inf        0.30882   
 0.0020172  1.         0.20162    3.         Inf        0.40174   
 0.0020261  1.         0.20251    3.         Inf        0.58246   
 0.0020475  1.         0.20465    3.         Inf        0.73205   
 0.0021179  1.         0.21169    3.         Inf        2.0023    
 0.0024211  1.         0.24201    3.         Inf        11.331    
 0.0035038  1.         0.35028    3.         Inf        45.121    
 0.006      1.         0.5999     3.         Inf        103.55    
 0.006      1.         0.59988    2.         0.0065001  0.3013    
 0.006      1.         0.59986    2.         0.0064435  0.26788   
 0.0060005  0.99953    0.22065    6.         0.017828   0.0060408 
 0.0060008  0.99919    0.037555   2.         0.018225   0.0076719 
 0.0060012  0.99884   -0.091526   2.         0.023214   0.034187  
 0.0060014  0.99861   -0.15553    2.         0.021293   0.039227  
 0.0060016  0.99838   -0.20625    2.         0.017877   0.034314  
 0.006002   0.998     -0.26784    2.         0.018169   0.045321  
 0.0060024  0.99762   -0.30985    2.         0.023725   0.043005  
 0.0060028  0.99724   -0.33851    2.         0.027853   0.035715  
 0.0060034  0.99662   -0.36787    2.         0.02699    0.043609  
 0.006004   0.99599   -0.38321    2.         0.040173   0.056185  
 0.0060046  0.99536   -0.39123    2.         Inf        Inf       
 0.0060057  0.9943    -0.39733    3.         Inf        0.075318  
 0.0060068  0.99323   -0.39919    3.         Inf        0.080261  
 0.0060087  0.99135   -0.39998    3.         Inf        0.13125   
 0.0060105  0.98946   -0.4        3.         Inf        0.35758   
 0.0060148  0.98517   -0.40001    3.         Inf        0.23219   
 0.0060224  0.97765   -0.40002    3.         Inf        0.27809   
 0.0060561  0.94394   -0.40015    3.         Inf        0.83754   
 0.0062636  0.73636   -0.40345    3.         8.9465     4.6412    
 0.0064712  0.52879   -0.41106    3.         7.8248     8.5171    
 0.0066788  0.32121   -0.42297    3.         8.5138     68.86     
 0.0068864  0.11364   -0.43919    3.         9.8441     20.634    
 0.007      0.        -0.4499     3.         3.4344     11.634    
 0.007      0.        -0.44988    2.         0.0070002  0.072504  
 0.007      0.        -0.44986    2.         0.0070001  0.0072596 
 0.0070001  0.        -0.33505    2.         Inf        Inf       
 0.0070004  0.        -0.10483    2.         Inf        Inf       
 0.0070007  0.         0.065505   2.         Inf        Inf       
 0.007001   0.         0.19153    2.         Inf        Inf       
 0.0070013  0.         0.28478    2.         Inf        Inf       
 0.0070016  0.         0.35377    2.         Inf        Inf       
 0.0070021  0.         0.42628    2.         Inf        Inf       
 0.0070025  0.         0.472      2.         Inf        Inf       
 0.007003   0.         0.50082    2.         Inf        Inf       
 0.0070037  0.         0.52723    2.         Inf        Inf       
 0.0070044  0.         0.53946    2.         Inf        Inf       
 0.0070056  0.         0.54706    2.         Inf        Inf       
 0.0070067  0.         0.54918    2.         Inf        Inf       
 0.0070086  0.         0.54999    2.         Inf        Inf       
 0.0070106  0.         0.55       2.         Inf        Inf       
 0.0070153  0.         0.55       2.         Inf        Inf       
 0.0070238  0.         0.55       3.         Inf        Inf       
 0.0070718  0.         0.55       3.         Inf        Inf       
 0.0074378  0.         0.55       3.         Inf        Inf       
 0.0087189  0.         0.55       3.         Inf        Inf       
 0.01       0.         0.55       3.         Inf        Inf       
Gnucap   System status
iterations: op=0, dc=0, tran=519, fourier=0, total=705
transient timesteps: accepted=182, rejected=4, total=186
nodes: user=2, subckt=0, model=0, total=2
dctran density=100.0%, ac density=100.0%
#Time       v(n1)      v(out)     iter(0)    timef(dut._b_ddt_1_p_ddt_1_n) timef(dut._b_idt_0_p_idt_0_n) timef(dut._b_sp_sn)
 0.         0.         0.         3.         Inf        Inf        Inf       
 20.p       10.n       9.9998u    3.         30.p       120.02n    Inf       
 30.p       15.n       15.u       3.         Inf        2.7133n    Inf       
 1.07n      535.n      534.71u    3.         Inf        2.1569n    Inf       
 2.11n      1.055u     0.0010539  3.         Inf        Inf        Inf       
 34.38n     17.19u     0.016899   3.         Inf        823.32u    Inf       
 100.09n    50.045u    0.047634   3.         Inf        0.002389   Inf       
 206.02n    103.01u    0.093144   3.         Inf        Inf        Inf       
 311.95n    155.98u    0.13408    3.         Inf        0.0071874  Inf       
 472.16n    236.08u    0.18836    3.         Inf        0.0082919  Inf       
 632.37n    316.19u    0.23459    3.         Inf        0.0092101  Inf       
 792.58n    396.29u    0.27396    3.         Inf        0.0088442  Inf       
 952.79n    476.4u     0.30749    3.         0.00761    0.0072109  Inf       
 1.199u     599.49u    0.3497     3.         0.0065622  0.0090719  Inf       
 1.4452u    722.59u    0.38266    3.         0.0080381  0.021081   Inf       
 1.6914u    845.68u    0.4084     3.         0.010026   0.014778   Inf       
 1.9376u    968.78u    0.4285     3.         0.0065123  0.016828   Inf       
 2.1837u    0.0010919  0.4442     3.         0.0067289  Inf        Inf       
 2.5844u    0.0012922  0.46286    3.         0.010859   0.013832   Inf       
 2.9851u    0.0014926  0.47531    3.         0.016531   0.050439   Inf       
 3.3858u    0.0016929  0.4836     3.         0.012515   0.01773    Inf       
 3.7865u    0.0018933  0.48914    3.         0.012991   0.018249   Inf       
 4.4351u    0.0022175  0.49456    3.         0.021021   0.042803   Inf       
 5.0836u    0.0025418  0.49734    3.         Inf        0.023415   Inf       
 5.7321u    0.0028661  0.49878    3.         Inf        0.04184    Inf       
 6.813u     0.0034065  0.49986    3.         Inf        0.11491    Inf       
 7.894u     0.003947   0.50022    3.         Inf        0.048583   Inf       
 9.8189u    0.0049094  0.50044    3.         Inf        0.074693   Inf       
 11.744u    0.0058719  0.50054    3.         Inf        0.10533    Inf       
 16.213u    0.0081064  0.50077    3.         Inf        0.13981    Inf       
 24.143u    0.012071   0.50117    3.         Inf        0.30615    Inf       
 66.058u    0.033029   0.50336    3.         Inf        1.4824     Inf       
 386.51u    0.19325    0.52299    3.         7.7595     Inf        Inf       
 0.002      1.         0.69985    3.         22.149     Inf        Inf       
 0.002      1.         0.69985    2.         0.0022923  0.12362    Inf       
 0.0020065  1.        -0.063636   6.         0.0020503  0.0022419  Inf       
 0.002007   1.         0.047615   8.         0.0020142  0.0049845  Inf       
 0.0020073  1.         0.090345   2.         Inf        0.059196   Inf       
 0.0020076  1.         0.11164    2.         Inf        0.039146   Inf       
 0.0020078  1.         0.12883    2.         Inf        0.032116   Inf       
 0.002008   1.         0.14271    2.         Inf        Inf        Inf       
 0.0020082  1.         0.15392    2.         Inf        0.011906   Inf       
 0.0020084  1.         0.16297    2.         Inf        0.0098649  Inf       
 0.0020087  1.         0.17378    2.         Inf        0.011704   Inf       
 0.0020091  1.         0.18152    2.         Inf        0.018066   Inf       
 0.0020094  1.         0.18706    2.         Inf        0.025466   Inf       
 0.0020097  1.         0.19103    2.         Inf        0.025469   Inf       
 0.0020103  1.         0.1951     2.         Inf        0.028987   Inf       
 0.0020108  1.         0.19753    2.         Inf        0.041924   Inf       
 0.0020113  1.         0.19899    2.         Inf        Inf        Inf       
 0.0020121  1.         0.20021    2.         Inf        0.043255   Inf       
 0.0020128  1.         0.20079    2.         Inf        0.045229   Inf       
 0.0020141  1.         0.20121    2.         Inf        0.075603   Inf       
 0.0020153  1.         0.20141    2.         Inf        0.079296   Inf       
 0.0020175  1.         0.20165    3.         Inf        0.097938   Inf       
 0.0020197  1.         0.20187    3.         Inf        0.10428    Inf       
 0.0020255  1.         0.20245    3.         Inf        0.23129    Inf       
 0.002037   1.         0.2036     3.         Inf        0.27527    Inf       
 0.0020868  1.         0.20858    3.         Inf        0.88558    Inf       
 0.0023912  1.         0.23902    3.         Inf        2.8488     Inf       
 0.0036593  1.         0.36583    3.         Inf        15.503     Inf       
 0.006      1.         0.5999     3.         Inf        67.068     Inf       
 0.006      1.         0.59988    2.         0.0062566  0.15751    Inf       
 0.006      1.         0.59986    2.         0.0062221  0.13715    Inf       
 0.0060002  0.99979    0.41105    6.         0.0087554  0.0060163  Inf       
 0.0060004  0.99958    0.25789    2.         0.0090325  0.0065344  Inf       
 0.0060006  0.99937    0.13365    2.         0.011006   0.014561   Inf       
 0.0060008  0.99921    0.054167   2.         Inf        0.013218   Inf       
 0.0060009  0.99905   -0.013479   2.         0.012327   0.012954   Inf       
 0.0060011  0.99895   -0.052674   2.         0.0097091  0.013375   Inf       
 0.0060012  0.99884   -0.087894   2.         0.0092356  0.012458   Inf       
 0.0060013  0.99873   -0.11954    2.         0.01007    0.012697   Inf       
 0.0060014  0.99857   -0.16184    2.         0.011347   0.012795   Inf       
 0.0060016  0.99841   -0.19775    2.         0.010045   0.018605   Inf       
 0.0060018  0.99824   -0.22825    2.         0.010309   0.014111   Inf       
 0.0060019  0.99808   -0.25415    2.         0.012213   0.01622    Inf       
 0.0060022  0.99783   -0.28691    2.         Inf        0.02944    Inf       
 0.0060024  0.99757   -0.31231    2.         Inf        0.015421   Inf       
 0.0060027  0.99732   -0.33201    2.         Inf        0.016401   Inf       
 0.0060029  0.99707   -0.34728    2.         Inf        0.017622   Inf       
 0.0060032  0.99681   -0.35912    2.         Inf        0.016401   Inf       
 0.0060036  0.9964    -0.3731     2.         0.019241   0.01678    Inf       
 0.006004   0.99599   -0.3823     2.         0.01614    0.01902    Inf       
 0.0060044  0.99558   -0.38836    2.         0.016892   0.031803   Inf       
 0.0060048  0.99516   -0.39234    2.         0.021705   0.42191    Inf       
 0.0060055  0.99449   -0.39621    2.         Inf        0.024946   Inf       
 0.0060062  0.99381   -0.39812    2.         Inf        0.025997   Inf       
 0.0060069  0.99314   -0.39907    2.         Inf        0.039399   Inf       
 0.006008   0.992     -0.39975    3.         Inf        0.044219   Inf       
 0.0060091  0.99085   -0.39993    3.         Inf        0.056313   Inf       
 0.0060112  0.98876   -0.40001    3.         Inf        0.15447    Inf       
