pid0 #(.p(.1),.i(100),.d(1m)) dut (.sp(0),.sn(out),.cp(n1),.cn(0));
// pid0 #(.d(1m)) dut (out, 0, n1, 0); 
capacitor #(.c(1u)) c (.p(out),.n(0));
resistor #(.r(1)) r (.p(out),.n(0));
#Time       v(n1)      v(out)     iter(0)    timef(dut._b_ddt_1_p_ddt_1_n) timef(dut._b_idt_0_p_idt_0_n)
 0.         0.         0.         3.         Inf        Inf       
 20.p       10.n       9.9998u    3.         30.p       84.u      
 30.p       15.n       15.u       3.         Inf        71.023n   
 2.78n      1.39u      0.0013881  3.         Inf        16.047n   
 9.65n      4.825u     0.0048018  3.         301.93u    0.0025099 
 26.38n     13.19u     0.013018   3.         514.76u    0.0050632 
 43.11n     21.555u    0.021097   3.         923.77u    0.0036758 
 59.84n     29.92u     0.029043   3.         0.0018359  0.0049815 
 76.57n     38.285u    0.036857   3.         0.0017412  0.0039538 
 93.3n      46.65u     0.044541   3.         0.0010432  0.003281  
 110.03n    55.015u    0.052098   3.         866.41u    0.0028222 
 126.76n    63.38u     0.059529   3.         978.4u     0.0021466 
 143.49n    71.745u    0.066837   3.         214.86     0.001671  
 160.22n    80.11u     0.074024   3.         0.0016792  0.002275  
 176.95n    88.475u    0.081092   3.         Inf        0.0032811 
 193.68n    96.84u     0.088042   3.         Inf        0.0019189 
 210.41n    105.21u    0.094877   3.         Inf        0.0021382 
 227.14n    113.57u    0.1016     3.         0.0014973  0.0017754 
 254.02n    127.01u    0.11217    3.         0.0014286  0.0019085 
 280.9n     140.45u    0.12245    3.         0.0018321  0.0020376 
 307.78n    153.89u    0.13247    3.         0.001826   0.0019868 
 334.66n    167.33u    0.14222    3.         0.0017061  0.0021309 
 361.54n    180.77u    0.15171    3.         0.0017506  0.0026347 
 404.32n    202.16u    0.16629    3.         0.0021583  0.0046771 
 447.1n     223.55u    0.18027    3.         0.0035072  0.0040081 
 489.88n    244.94u    0.19367    3.         Inf        0.0048625 
 532.66n    266.33u    0.2065     3.         0.0040311  0.0044767 
 575.44n    287.72u    0.21879    3.         0.0028681  0.0045386 
 643.53n    321.77u    0.23731    3.         0.0030739  0.0040164 
 711.62n    355.81u    0.25461    3.         0.0038616  0.0053975 
 779.71n    389.86u    0.27077    3.         0.0055069  0.0103    
 847.8n     423.9u     0.28587    3.         0.0047566  0.0080247 
 915.89n    457.95u    0.29997    3.         0.0038049  0.014447  
 1.0243u    512.13u    0.32054    3.         0.0045831  0.012296  
 1.1326u    566.32u    0.33899    3.         0.005929   0.0099279 
 1.241u     620.5u     0.35555    3.         0.0082769  0.012079  
 1.3494u    674.69u    0.37041    3.         0.0090129  0.009393  
 1.4577u    728.87u    0.38374    3.         0.0071937  0.013321  
 1.6302u    815.11u    0.40221    3.         0.0086413  0.016986  
 1.8027u    901.35u    0.41775    3.         0.01105    0.015368  
 1.9752u    987.59u    0.43083    3.         0.012545   0.014417  
 2.1477u    0.0010738  0.44183    3.         0.0129     0.014374  
 2.3201u    0.0011601  0.45108    3.         0.011564   0.024984  
 2.5947u    0.0012973  0.46292    3.         0.012306   0.017314  
 2.8692u    0.0014346  0.4719     3.         0.02466    0.047104  
 3.1437u    0.0015718  0.47872    3.         0.016226   0.023629  
 3.4182u    0.0017091  0.4839     3.         0.01942    0.024986  
 3.6927u    0.0018464  0.48783    3.         0.023936   0.027167  
 4.1297u    0.0020648  0.49226    3.         0.028672   0.037916  
 4.5666u    0.0022833  0.49512    3.         0.036422   0.078923  
 5.0035u    0.0025018  0.49695    3.         0.044522   0.040692  
 5.4405u    0.0027202  0.49814    3.         Inf        0.039425  
 5.8774u    0.0029387  0.49891    3.         0.035851   0.047514  
 6.5728u    0.0032864  0.49963    3.         0.029282   0.040909  
 7.2682u    0.0036341  0.5        3.         0.033103   0.071165  
 7.9636u    0.0039818  0.5002     3.         0.045116   0.079044  
 8.659u     0.0043295  0.50031    3.         0.05369    0.06171   
 9.3543u    0.0046772  0.50038    3.         0.047604   0.079952  
 10.461u    0.0052306  0.50047    3.         0.052449   0.073733  
 11.568u    0.0057839  0.50053    3.         0.16707    0.076768  
 12.675u    0.0063373  0.50059    3.         0.07342    0.095267  
 13.781u    0.0068907  0.50064    3.         0.092048   0.12275   
 14.888u    0.0074441  0.5007     3.         0.23798    0.12277   
 16.65u     0.0083247  0.50079    3.         0.15737    0.10792   
 18.411u    0.0092054  0.50088    3.         0.13123    0.13151   
 20.172u    0.010086   0.50097    3.         0.17257    0.40454   
 21.934u    0.010967   0.50106    3.         Inf        0.15326   
 23.695u    0.011847   0.50115    3.         Inf        0.16136   
 26.498u    0.013249   0.50129    3.         0.31553    0.33935   
 29.301u    0.014651   0.50144    3.         0.21654    0.26907   
 32.104u    0.016052   0.50158    3.         0.25688    0.37045   
 34.907u    0.017454   0.50172    3.         0.26415    0.59472   
 37.711u    0.018855   0.50187    3.         0.27104    0.35474   
 42.172u    0.021086   0.5021     3.         0.45626    0.46455   
 46.633u    0.023317   0.50233    3.         0.53553    0.62283   
 51.095u    0.025547   0.50257    3.         0.72163    0.67491   
 55.556u    0.027778   0.5028     3.         0.74206    0.57334   
 60.018u    0.030009   0.50304    3.         0.76141    0.52518   
 67.118u    0.033559   0.50342    3.         1.2955     0.47882   
 74.218u    0.037109   0.50379    3.         0.59578    0.53435   
 81.318u    0.040659   0.50418    3.         0.69565    0.6981    
 88.418u    0.044209   0.50456    3.         0.57871    1.0646    
 95.518u    0.047759   0.50495    3.         0.5938     0.77216   
 106.81u    0.053406   0.50557    3.         0.67572    1.2579    
 118.1u     0.059052   0.5062     3.         0.64983    1.0936    
 129.4u     0.064699   0.50683    3.         0.82158    1.852     
 140.69u    0.070346   0.50747    3.         0.84482    1.1125    
 151.99u    0.075993   0.50812    3.         1.0921     1.5284    
 169.96u    0.084978   0.50916    3.         1.5255     1.2438    
 187.93u    0.093964   0.51022    3.         1.2209     2.1739    
 205.9u     0.10295    0.51129    3.         1.2211     1.5612    
 223.87u    0.11193    0.51239    3.         1.5273     2.1392    
 241.84u    0.12092    0.51349    3.         1.3047     2.1335    
 270.37u    0.13519    0.51528    3.         1.1428     1.9526    
 298.9u     0.14945    0.51711    3.         1.4839     2.2765    
 327.44u    0.16372    0.51899    3.         2.7975     2.6044    
 355.97u    0.17799    0.5209     3.         Inf        Inf       
 384.5u     0.19225    0.52285    3.         1.8952     2.8409    
 429.86u    0.21493    0.52604    3.         1.6392     3.2812    
 475.22u    0.23761    0.52933    3.         2.0969     4.3978    
 520.57u    0.26029    0.53273    3.         4.1594     5.5203    
 565.93u    0.28296    0.53622    3.         4.2769     6.9485    
 611.28u    0.30564    0.53983    3.         3.0428     10.779    
 683.5u     0.34175    0.54577    3.         3.1522     6.2182    
 755.73u    0.37786    0.55198    3.         3.9238     9.4147    
 827.95u    0.41397    0.55844    3.         4.849      Inf       
 900.17u    0.45008    0.56517    3.         4.9861     11.56     
 972.39u    0.48619    0.57216    3.         6.4457     12.17     
 0.0010867  0.54333    0.58375    3.         12.912     10.448    
 0.0012009  0.60047    0.59599    3.         14.037     11.99     
 0.0013152  0.6576     0.60889    3.         9.0726     Inf       
 0.0014295  0.71474    0.62244    3.         7.4041     17.186    
 0.0015438  0.77188    0.63664    3.         9.5705     15.701    
 0.0017237  0.86184    0.66032    3.         Inf        11.18     
 0.0019036  0.9518     0.68563    3.         Inf        12.839    
 0.002      1.         0.69985    3.         18.383     14.754    
 0.002      1.         0.69985    2.         0.0021143  7.0486    
 0.0020038  1.         0.045505   6.         0.0020319  0.0021817 
 0.0020052  1.         0.1737     6.         0.0020155  Inf       
 0.002006   1.         0.18833    2.         Inf        Inf       
 0.0020065  1.         0.1938     2.         Inf        Inf       
 0.0020071  1.         0.19686    2.         Inf        Inf       
 0.0020082  1.         0.19964    2.         Inf        Inf       
 0.0020093  1.         0.20052    2.         Inf        Inf       
 0.0020113  1.         0.20104    3.         Inf        Inf       
 0.0020134  1.         0.20124    3.         Inf        Inf       
 0.0020182  1.         0.20172    3.         Inf        Inf       
 0.0020268  1.         0.20258    3.         Inf        Inf       
 0.0020826  1.         0.20816    3.         Inf        Inf       
 0.0026481  1.         0.26471    3.         Inf        Inf       
 0.006      1.         0.5999     3.         Inf        214.1     
 0.006      1.         0.59988    2.         0.0065686  164.63    
 0.006      1.         0.59986    2.         0.006665   0.0066004 
 0.0060005  0.99951    0.20752    6.         0.0060371  0.0060393 
 0.0060008  0.99917    0.028034   2.         0.0071813  0.0072884 
 0.0060012  0.99882   -0.098422   2.         0.026165   0.067312  
 0.0060014  0.99858   -0.16239    2.         0.099795   0.039271  
 0.0060017  0.99834   -0.21279    2.         0.09596    0.050144  
 0.006002   0.99796   -0.27335    2.         0.039984   0.034269  
 0.0060024  0.99757   -0.31432    2.         0.039464   0.044053  
 0.0060028  0.99719   -0.34204    2.         0.047095   0.18966   
 0.0060035  0.99655   -0.3701     2.         0.041324   0.045042  
 0.0060041  0.99591   -0.38457    2.         0.060417   0.051166  
 0.0060047  0.99527   -0.39204    2.         0.068291   0.30478   
 0.0060058  0.99418   -0.39767    3.         0.061059   0.079378  
 0.0060069  0.99309   -0.39932    3.         0.082635   0.07316   
 0.0060089  0.99113   -0.4        3.         0.2197     0.1075    
 0.0060108  0.98918   -0.4        3.         0.16365    0.16081   
 0.0060154  0.98461   -0.40001    3.         0.24396    0.26415   
 0.0060236  0.97645   -0.40003    3.         0.35045    0.62042   
 0.0060745  0.92547   -0.40027    3.         0.76228    1.2567    
 0.0063549  0.64508   -0.40626    3.         2.942      2.9492    
 0.0066353  0.36469   -0.42012    3.         9.0946     13.436    
 0.0069157  0.084297  -0.44183    3.         11.775     22.142    
 0.007      0.        -0.4499     3.         3.0764     66.295    
 0.007      0.        -0.44988    2.         0.007      0.06886   
 0.007      0.        -0.44986    2.         0.007      0.007235  
 0.007      0.        -0.43993    2.         Inf        Inf       
 0.0070003  0.        -0.18632    2.         Inf        Inf       
 0.0070006  0.         0.0023197  2.         Inf        Inf       
 0.0070009  0.         0.14263    2.         Inf        Inf       
 0.0070012  0.         0.247      2.         Inf        Inf       
 0.0070015  0.         0.32462    2.         Inf        Inf       
 0.0070018  0.         0.38236    2.         Inf        Inf       
 0.0070023  0.         0.44853    2.         Inf        Inf       
 0.0070028  0.         0.48858    2.         Inf        Inf       
 0.0070032  0.         0.51282    2.         Inf        Inf       
 0.007004   0.         0.53391    2.         Inf        Inf       
 0.0070048  0.         0.54304    2.         Inf        Inf       
 0.0070061  0.         0.54839    2.         Inf        Inf       
 0.0070073  0.         0.54963    2.         Inf        Inf       
 0.0070096  0.         0.55002    2.         Inf        Inf       
 0.0070118  0.         0.55       2.         Inf        Inf       
 0.0070179  0.         0.55       2.         Inf        Inf       
 0.0070303  0.         0.55       3.         Inf        Inf       
 0.007079   0.         0.55       3.         Inf        Inf       
 0.0073224  0.         0.55       3.         Inf        Inf       
 0.0082149  0.         0.55       3.         Inf        Inf       
 0.01       0.         0.55       3.         Inf        Inf       
Gnucap   System status
iterations: op=0, dc=0, tran=509, fourier=0, total=691
transient timesteps: accepted=179, rejected=3, total=182
nodes: user=2, subckt=0, model=0, total=2
dctran density=100.0%, ac density=100.0%
#Time       v(n1)      v(out)     iter(0)    timef(dut._b_ddt_1_p_ddt_1_n) timef(dut._b_idt_0_p_idt_0_n) timef(dut._b_sp_sn)
 0.         0.         0.         3.         Inf        Inf        Inf       
 20.p       10.n       9.9998u    3.         30.p       12.u       Inf       
 30.p       15.n       15.u       3.         Inf        26.863n    Inf       
 1.07n      535.n      534.71u    3.         Inf        6.1149n    Inf       
 2.97n      1.485u     0.0014828  3.         76.813u    884.49u    Inf       
 36.2n      18.1u      0.017778   3.         407.64u    0.0029416  Inf       
 103.56n    51.78u     0.049202   3.         0.0018432  Inf        Inf       
 210.61n    105.31u    0.095009   3.         0.0025388  0.0034345  Inf       
 317.66n    158.83u    0.13616    3.         0.0045055  0.0035683  Inf       
 478.78n    239.39u    0.19042    3.         Inf        0.0044654  Inf       
 639.9n     319.95u    0.23658    3.         Inf        0.0053679  Inf       
 801.02n    400.51u    0.27586    3.         Inf        0.0065982  Inf       
 962.14n    481.07u    0.30929    3.         Inf        0.0086898  Inf       
 1.2095u    604.73u    0.35128    3.         0.011818   0.019425   Inf       
 1.4568u    728.39u    0.38403    3.         0.010783   0.01452    Inf       
 1.7041u    852.05u    0.40957    3.         0.010325   0.013333   Inf       
 1.9514u    975.71u    0.42949    3.         0.0083063  0.010497   Inf       
 2.1987u    0.0010994  0.44504    3.         0.0077948  0.010809   Inf       
 2.6015u    0.0013007  0.4635     3.         0.0090782  0.011865   Inf       
 3.0042u    0.0015021  0.47578    3.         0.011457   0.013566   Inf       
 3.4069u    0.0017035  0.48396    3.         0.018004   0.020657   Inf       
 3.8096u    0.0019048  0.48939    3.         Inf        Inf        Inf       
 4.4625u    0.0022313  0.49472    3.         0.034285   0.038437   Inf       
 5.1155u    0.0025577  0.49744    3.         0.037827   0.040324   Inf       
 5.7684u    0.0028842  0.49883    3.         0.027868   0.057605   Inf       
 6.8597u    0.0034298  0.49988    3.         0.025342   0.062839   Inf       
 7.951u     0.0039755  0.50023    3.         0.032274   0.045274   Inf       
 9.903u     0.0049515  0.50045    3.         0.072477   0.061962   Inf       
 11.855u    0.0059275  0.50055    3.         0.069481   0.083794   Inf       
 16.43u     0.0082152  0.50078    3.         0.098587   0.1048     Inf       
 24.62u     0.01231    0.50119    3.         0.18538    0.22383    Inf       
 75.257u    0.037628   0.50385    3.         0.69326    1.2818     Inf       
 547.86u    0.27393    0.53482    3.         6.4707     Inf        Inf       
 0.002      1.         0.69985    3.         28.669     Inf        Inf       
 0.002      1.         0.69985    2.         0.0022817  40.763     Inf       
 0.0020062  1.        -0.055454   6.         0.0020479  0.0022335  Inf       
 0.0020067  1.         0.054524   8.         0.0020137  Inf        Inf       
 0.002007   1.         0.092838   2.         Inf        Inf        Inf       
 0.0020073  1.         0.11361    2.         Inf        Inf        Inf       
 0.0020075  1.         0.13039    2.         Inf        Inf        Inf       
 0.0020077  1.         0.14394    2.         Inf        Inf        Inf       
 0.0020079  1.         0.15488    2.         Inf        Inf        Inf       
 0.0020081  1.         0.16372    2.         Inf        Inf        Inf       
 0.0020084  1.         0.17439    2.         Inf        Inf        Inf       
 0.0020088  1.         0.18201    2.         Inf        Inf        Inf       
 0.0020091  1.         0.18744    2.         Inf        Inf        Inf       
 0.0020095  1.         0.19132    2.         Inf        Inf        Inf       
 0.00201    1.         0.19529    2.         Inf        Inf        Inf       
 0.0020105  1.         0.19765    2.         Inf        Inf        Inf       
 0.002011   1.         0.19906    2.         Inf        Inf        Inf       
 0.0020118  1.         0.20024    2.         Inf        Inf        Inf       
 0.0020126  1.         0.2008     2.         Inf        Inf        Inf       
 0.0020138  1.         0.2012     2.         Inf        Inf        Inf       
 0.0020151  1.         0.20139    2.         Inf        Inf        Inf       
 0.0020173  1.         0.20163    3.         Inf        Inf        Inf       
 0.0020196  1.         0.20186    3.         Inf        Inf        Inf       
 0.0020257  1.         0.20247    3.         Inf        Inf        Inf       
 0.0020381  1.         0.20371    3.         Inf        Inf        Inf       
 0.0020878  1.         0.20868    3.         Inf        Inf        Inf       
 0.0023704  1.         0.23694    3.         Inf        Inf        Inf       
 0.0034604  1.         0.34594    3.         Inf        35.108     Inf       
 0.006      1.         0.5999     3.         Inf        51.644     Inf       
 0.006      1.         0.59988    2.         0.0062642  55.728     Inf       
 0.006      1.         0.59986    2.         0.0062711  0.0062861  Inf       
 0.0060002  0.99979    0.41041    6.         0.0060147  0.0060155  Inf       
 0.0060004  0.99958    0.25686    2.         0.0063703  0.0064036  Inf       
 0.0060006  0.99937    0.13241    2.         0.011487   0.014593   Inf       
 0.0060008  0.99921    0.05318    2.         0.013206   0.01845    Inf       
 0.0060009  0.99905   -0.014257   2.         0.012439   0.021162   Inf       
 0.0060011  0.99894   -0.053157   2.         0.011495   0.013215   Inf       
 0.0060012  0.99884   -0.088134   2.         0.012284   0.012617   Inf       
 0.0060013  0.99873   -0.11958    2.         0.010015   0.18868    Inf       
 0.0060014  0.99857   -0.16189    2.         0.0093842  0.014422   Inf       
 0.0060016  0.99841   -0.19781    2.         0.0097978  0.017478   Inf       
 0.0060018  0.99824   -0.22832    2.         0.010277   0.24926    Inf       
 0.0060019  0.99808   -0.25422    2.         0.010822   0.012697   Inf       
 0.0060022  0.99783   -0.28697    2.         0.015151   0.012916   Inf       
 0.0060024  0.99757   -0.31236    2.         0.017146   0.018243   Inf       
 0.0060027  0.99732   -0.33205    2.         0.015563   0.33195    Inf       
 0.0060029  0.99707   -0.34732    2.         0.01359    0.016394   Inf       
 0.0060032  0.99681   -0.35915    2.         0.014354   0.016394   Inf       
 0.0060036  0.9964    -0.37313    2.         0.017471   0.026437   Inf       
 0.006004   0.99599   -0.38232    2.         0.023385   0.02552    Inf       
 0.0060044  0.99558   -0.38837    2.         0.022705   0.022995   Inf       
 0.0060048  0.99516   -0.39235    2.         0.017632   0.022973   Inf       
 0.0060055  0.99449   -0.39621    2.         0.019658   0.0313     Inf       
 0.0060062  0.99381   -0.39812    2.         0.039091   0.05365    Inf       
 0.0060069  0.99314   -0.39907    2.         0.043552   0.12794    Inf       
 0.006008   0.99199   -0.39975    3.         0.043738   0.070405   Inf       
 0.0060091  0.99085   -0.39993    3.         0.040267   0.084683   Inf       
 0.0060112  0.98876   -0.40001    3.         0.049163   0.065673   Inf       
 0.0060133  0.98666   -0.40001    3.         0.075689   0.073496   Inf       
 0.0060185  0.98151   -0.40002    3.         0.14208    0.11803    Inf       
 0.0060281  0.9719    -0.40004    3.         0.1493     0.22275    Inf       
