#           v(in)      v(out)     iter(0)   
 0.         0.         0.         0.        
-1.        -10.       -10.        1.        
-2.        -10.       -10.        2.        
-10.       -10.       -10.        3.        
 0.        -10.       -10.        0.        
-1.        -8.        -8.         1.        
-2.        -8.        -8.         2.        
-8.        -8.        -8.         3.        
 0.        -8.        -8.         0.        
-1.        -6.        -6.         1.        
-2.        -6.        -6.         2.        
-6.        -6.        -6.         3.        
 0.        -6.        -6.         0.        
-1.        -4.        -4.         1.        
-2.        -4.        -4.         2.        
-4.        -4.        -4.         3.        
 0.        -4.        -4.         0.        
-1.        -2.        -2.         1.        
-2.        -2.        -2.         2.        
-2.        -2.        -2.         3.        
 0.        -2.        -2.         0.        
-1.         0.         0.         1.        
-2.         0.         0.         2.        
 0.         0.         0.         3.        
 0.         0.         0.         0.        
-1.         2.         2.         1.        
-2.         2.         2.         2.        
 2.         2.         2.         3.        
 0.         2.         2.         0.        
-1.         4.         4.         1.        
-2.         4.         4.         2.        
 4.         4.         4.         3.        
 0.         4.         4.         0.        
-1.         6.         6.         1.        
-2.         6.         6.         2.        
 6.         6.         6.         3.        
 0.         6.         6.         0.        
-1.         8.         8.         1.        
-2.         8.         8.         2.        
 8.         8.         8.         3.        
 0.         8.         8.         0.        
-1.         10.        10.        1.        
-2.         10.        10.        2.        
 10.        10.        10.        3.        
#Time       v(in)      v(out)     iter(0)   
 0.         0.         0.         2.        
 241.13n    1.515u     365.22p    15.       
 980.56n    6.161u     3.2019n    6.        
 1.72u      10.807u    9.4705n    3.        
 2.4594u    15.453u    19.169n    3.        
 10.58u     66.475u    350.32n    3.        
 25.62u     160.98u    2.0428u    3.        
 55.97u     351.66u    9.6446u    3.        
 105.71u    664.19u    33.828u    3.        
 183.41u    0.0011524  99.228u    3.        
 261.1u     0.0016405  196.25u    3.        
 409.88u    0.0025753  460.97u    3.        
 558.65u    0.0035101  818.47u    3.        
 817.83u    0.0051386  0.0016229  3.        
 0.001077   0.006767   0.0026164  3.        
 0.0015056  0.00946    0.0045567  3.        
 0.0019343  0.012153   0.0067628  3.        
 0.0026519  0.016662   0.0108     3.        
 0.0033696  0.02117    0.015087   3.        
 0.0046731  0.029358   0.023118   3.        
 0.0059766  0.037543   0.031272   3.        
 0.0088998  0.05589    0.049613   3.        
 0.013811   0.086667   0.080404   3.        
 0.026277   0.16436    0.15815    3.        
 0.057859   0.35558    0.34966    3.        
 0.10699    0.62272    0.61772    3.        
 0.15611    0.83099    0.82744    3.        
 0.20524    0.96071    0.9589     3.        
 0.27893    0.98353    0.98464    3.        
 0.35262    0.79923    0.80305    3.        
 0.5        69.841n    0.0069842  3.        
Gnucap   System status
iterations: op=0, dc=33, tran=107, fourier=0, total=176
transient timesteps: accepted=31, rejected=5, total=36
nodes: user=2, subckt=0, model=0, total=2
dctran density=100.0%, ac density=100.0%
