#           v(in)      v(out)     iter(0)   
-10.       -10.       -10.        3.        
-8.        -8.        -8.         3.        
-6.        -6.        -6.         3.        
-4.        -4.        -4.         3.        
-2.        -2.        -2.         3.        
 0.         0.         0.         3.        
 2.         2.         2.         3.        
 4.         4.         4.         3.        
 6.         6.         6.         3.        
 8.         8.         8.         3.        
 10.        10.        10.        3.        
#Time       v(in)      v(out)     iter(0)   
 0.         0.         0.         2.        
 241.13n    1.515u     182.63p    15.       
 795.64n    4.9991u    1.0855n    3.        
 1.2337u    7.7513u    2.4814n    3.        
 1.6717u    10.504u    4.4797n    3.        
 8.0299u    50.453u    101.21n    3.        
 23.702u    148.92u    878.5n     3.        
 58.991u    370.65u    5.4068u    3.        
 123.57u    776.38u    23.458u    3.        
 231.11u    0.0014521  80.578u    3.        
 395.51u    0.002485   229.64u    3.        
 559.91u    0.003518   448.49u    3.        
 871.86u    0.005478   0.0010344  3.        
 0.0011838  0.007438   0.0018192  3.        
 0.0017242  0.010833   0.0035609  3.        
 0.0022647  0.014229   0.0056963  3.        
 0.0031567  0.019833   0.0098297  3.        
 0.0040487  0.025436   0.014499   3.        
 0.005547   0.034846   0.023024   3.        
 0.0070454  0.044253   0.032031   3.        
 0.0097993  0.061532   0.049043   3.        
 0.012553   0.078792   0.066266   3.        
 0.018884   0.11837    0.10587    3.        
 0.029575   0.18476    0.17238    3.        
 0.05571    0.34293    0.33103    3.        
 0.10014    0.58849    0.57814    3.        
 0.14457    0.78849    0.78061    3.        
 0.20381    0.95817    0.95433    3.        
 0.26305    0.99664    0.99757    3.        
 0.34203    0.83742    0.84426    3.        
 0.42102    0.47615    0.48739    3.        
 0.5        127.97n    0.012797   3.        
