parameter r=1 
parameter v=0 
test_ddt0 #() dut (.p(1),.n(0));
vsine #(.ampl(1),.dc(v)) v1 (.p(1),.n(0));
#Time       v(1)       i(dut._b_ddt_0_p_ddt_0_n) i(dut._b_ddt_1_p_ddt_1_n) i(dut._b_ddt_2_p_ddt_2_n) iter(0)    d1(dut)    d2(dut)    d3(dut)   
 0.         0.         0.         0.         0.         3.         0.         0.         0.        
 0.1        0.58779    10.186     5.0931     5.0931     42.        10.186     10.186     10.186    
 0.2        0.95106    3.8508     1.9254     1.9254     6.         3.8508     3.8508     3.8508    
 0.3        0.95106   -3.9802    -1.9901    -1.9901     6.        -3.9802    -3.9802    -3.9802    
 0.4        0.58779   -10.551    -5.2753    -5.2753     3.        -10.551    -10.551    -10.551    
 0.5       -7.f       -12.961    -6.4804    -6.4804     3.        -12.961    -12.961    -12.961    
 0.6       -0.58779   -9.972     -4.986     -4.986      9.        -9.972     -9.972     -9.972     
 0.7       -0.95106   -3.6366    -1.8183    -1.8183     6.        -3.6366    -3.6366    -3.6366    
 0.8       -0.95106    4.1943     2.0972     2.0972     6.         4.1943     4.1943     4.1943    
 0.9       -0.58779    10.337     5.1683     5.1683     3.         10.337     10.337     10.337    
 1.         13.f       13.175     6.5874     6.5874     3.         13.175     13.175     13.175    
#Time       v(1)       i(dut._b_ddt_0_p_ddt_0_n) i(dut._b_ddt_1_p_ddt_1_n) i(dut._b_ddt_2_p_ddt_2_n) iter(0)    d1(dut)    d2(dut)    d3(dut)   
 0.         0.         0.         0.         0.         3.         0.         0.         0.        
 0.1        0.58779    10.186     5.0931     5.0931     42.        10.186     10.186     10.186    
 0.2        0.95106    3.8508     1.9254     1.9254     6.         3.8508     3.8508     3.8508    
 0.3        0.95106   -3.9802    -1.9901    -1.9901     6.        -3.9802    -3.9802    -3.9802    
 0.4        0.58779   -10.551    -5.2753    -5.2753     3.        -10.551    -10.551    -10.551    
 0.5       -7.f       -12.961    -6.4804    -6.4804     3.        -12.961    -12.961    -12.961    
 0.6       -0.58779   -9.972     -4.986     -4.986      9.        -9.972     -9.972     -9.972     
 0.7       -0.95106   -3.6366    -1.8183    -1.8183     6.        -3.6366    -3.6366    -3.6366    
 0.8       -0.95106    4.1943     2.0972     2.0972     6.         4.1943     4.1943     4.1943    
 0.9       -0.58779    10.337     5.1683     5.1683     3.         10.337     10.337     10.337    
 1.         13.f       13.175     6.5874     6.5874     3.         13.175     13.175     13.175    
Gnucap   System status
iterations: op=0, dc=0, tran=90, fourier=0, total=240
transient timesteps: accepted=46, rejected=14, total=60
nodes: user=1, subckt=0, model=1, total=2
dctran density=100.0%, ac density=100.0%
