#Time       dd(dut)    iter(0)   
 0.         0.         3.        
 2.n        6.2832     32.       
 3.n        6.2832     3.        
 0.035714   6.178      4.        
 0.071429   5.6583     4.        
 0.10714    4.9596     4.        
 0.16667    3.1896     4.        
 0.22619    0.93668    4.        
 0.28571   -1.4038     4.        
 0.375     -4.5954     4.        
 0.44955   -6.0124     8.        
 0.5241    -6.3968     4.        
 0.57169   -5.5601     4.        
 0.61928   -4.773      4.        
 0.66687   -3.0192     4.        
 0.71446   -1.5406     4.        
 0.78585    1.5528     4.        
 0.85723    3.8618     4.        
 1.         7.0858     4.        
#Time       v(1)       v(3)       iter(0)   
 0.         0.         1.         3.        
 2.n        12.566n    535.49     32.       
 3.n        18.85n     535.49     3.        
 0.035714   0.22252    482.02     4.        
 0.071429   0.43388    286.67     4.        
 0.10714    0.62349    142.54     4.        
 0.16667    0.86603    24.278     4.        
 0.22619    0.98883    2.5515     4.        
 0.28571    0.97493    0.24566    4.        
 0.375      0.70711    0.010098   4.        
 0.44955    0.31169    0.0024483  8.        
 0.5241    -0.15088    0.0016669  4.        
 0.57169   -0.43539    0.0038486  4.        
 0.61928   -0.68126    0.008455   4.        
 0.66687   -0.86667    0.048839   4.        
 0.71446   -0.97518    0.21424    4.        
 0.78585   -0.97474    4.7246     4.        
 0.85723   -0.78148    47.55      4.        
 1.         14.f       1.1949K    4.        
#Freq       vm(3)      vp(3)     
 1.         7.5075K    90.       
 2.         15.015K    90.       
 4.         30.03K     90.       
 8.         60.06K     90.       
 16.        120.12K    90.       
Gnucap   System status
iterations: op=0, dc=0, tran=106, fourier=0, total=271
transient timesteps: accepted=38, rejected=16, total=54
nodes: user=2, subckt=0, model=2, total=4
dctran density=75.0%, ac density=75.0%
