#Time       dd(dut)    iter(0)   
 0.         0.         3.        
 2.n        6.2832     32.       
 3.n        6.2832     3.        
 0.035714   6.178      4.        
 0.071429   5.6583     4.        
 0.10714    4.9596     4.        
 0.16667    3.1896     4.        
 0.22619    0.93668    4.        
 0.28571   -1.4038     4.        
 0.375     -4.5954     4.        
 0.44955   -6.0124     8.        
 0.5241    -6.3968     4.        
 0.57169   -5.5601     4.        
 0.61928   -4.773      4.        
 0.66687   -3.0192     4.        
 0.71446   -1.5406     4.        
 0.78585    1.5528     4.        
 0.85723    3.8618     4.        
 1.         7.0858     4.        
#Time                      v(1)                      v(3)                      iter(0)                  
 0.                        0.                        0.99999999999900008873    3.                       
 2.000000000000000444n     12.566370999999998403n    535.49165552087210073     32.000000000000001776    
 3.000000000000000444n     18.849555999999996203n    535.49165552086837038     3.                       
 0.035714289000000003504   0.22252095408346002081    482.02065518938610466     4.                       
 0.071428575000000007477   0.43388375933525304972    286.66951402446990471     4.                       
 0.10714286100000001145    0.62348982080653305715    142.53809884098266991     4.                       
 0.16666667000000002119    0.86602541425641508254    24.278390803229794592     4.                       
 0.22619047900000004425    0.98883082885613600154    2.5514843286759179008     4.                       
 0.28571428800000004954    0.97492790898607299965    0.24565838396197299253    4.                       
 0.37500000199999998784    0.70710677230077800814    0.010098381760555998898   4.                       
 0.44955242000000001922    0.31169035674091398746    0.0024482981751040000517  8.                       
 0.52410483800000005061   -0.15087679777898701516    0.0016668544273840000258  4.                       
 0.57169435399999999347   -0.43538771642204308065    0.0038485577911870008094  4.                       
 0.61928387000000011397   -0.68126013644067402452    0.0084550361105280007478  4.                       
 0.66687338599999996802   -0.8666741010369582554     0.048839008008663000737   4.                       
 0.71446290200000008852   -0.97517504122379499165    0.21424363881292700639    4.                       
 0.78584717700000004114   -0.97474177169005908893    4.7245885955170985326     4.                       
 0.85723145200000008259   -0.78148429082696200254    47.550239256078121741     4.                       
 1.                        13.999999999999999111f    1.1948578930170896583K    4.                       
#Time                      v(1)                      v(3)                      iter(0)                  
 0.                        0.                        0.99999999999900008873    3.                       
 2.000000000000000444n     12.566370999999998403n    535.49165552087210073     32.000000000000001776    
 3.000000000000000444n     18.849555999999996203n    535.49165552086837038     3.                       
 0.035714289000000003504   0.22252095408346002081    482.02065209632198872     4.                       
 0.071428575000000007477   0.43388375933525304972    286.6695104376665526      4.                       
 0.10714286100000001145    0.62348982080653305715    142.53809627819123306     4.                       
 0.16666667000000002119    0.86602541425641508254    24.278390196902415176     4.                       
 0.22619047900000004425    0.98883082885613600154    2.5514842559101325036     4.                       
 0.28571428800000004954    0.97492790898607299965    0.24565837704094102278    4.                       
 0.37500000199999998784    0.70710677230077800814    0.010098381533905000928   4.                       
 0.44955242000000001922    0.31169035674091398746    0.0024482981751040000517  8.                       
 0.52410483800000005061   -0.15087679777898701516    0.0016668544273840000258  4.                       
 0.57169435399999999347   -0.43538771642204308065    0.0038485577911870008094  4.                       
 0.61928387000000011397   -0.68126013644067402452    0.0084550361105280007478  4.                       
 0.66687338599999996802   -0.8666741010369582554     0.048839008008661002335   4.                       
 0.71446290200000008852   -0.97517504122379499165    0.21424363881290200417    4.                       
 0.78584717700000004114   -0.97474177169005802312    4.7245885955165300984     4.                       
 0.85723145200000008259   -0.78148429082696200254    47.550239256073352223     4.                       
 1.                        13.999999999999999111f    1.1948578930170921097K    4.                       
#Freq       vm(3)      vp(3)     
 1.         7.5075K    90.       
 2.         15.015K    90.       
 4.         30.03K     90.       
 8.         60.06K     90.       
 16.        120.12K    90.       
Gnucap   System status
iterations: op=0, dc=0, tran=106, fourier=0, total=404
transient timesteps: accepted=57, rejected=24, total=81
nodes: user=2, subckt=0, model=2, total=4
dctran density=75.0%, ac density=75.0%
