module vsin (p,n);
  .parameter ampl 
  .parameter dc 
  vsource #(sin.offset(NA( 0.)), .amplitude(ampl), .frequency( 1.), .delay(NA( 0.)), .damping(NA( 0.))  DC dc) V1 (.p(p),.n(n));
endmodule // vsin

parameter r=1 
parameter v=0 
test_xdt0 #() dut (.p(1),.n(0));
vsin #(.ampl(1),.dc(v)) v1 (.p(1),.n(0));
#Time       v(1)       iter(0)   
 0.         0.         2.        
 0.1        0.58779    52.       
 0.2        0.95106    6.        
 0.3        0.95106    6.        
 0.4        0.58779    7.        
 0.5        0.         7.        
 0.6       -0.58779    6.        
 0.7       -0.95106    6.        
 0.8       -0.95106    6.        
 0.9       -0.58779    6.        
 1.         0.         6.        
#Time       v(1)       idtddt(dut) ddtidt(dut) i(dut._b_ddt_2_p_ddt_2_n) i(dut._b_ddt_1_p_ddt_1_n) i(dut._b_idt_3_p_idt_3_n) i(dut._b_idt_0_p_idt_0_n) iter(0)   
 0.         0.         0.         0.         0.         0.         0.         0.         2.        
 0.1        0.58779    0.58779    0.58779    5.0933     0.58779    0.58779    0.030335   52.       
 0.2        0.95106    0.95106    0.95106    1.9257     0.95106    0.95106    0.10926    6.        
 0.3        0.95106    0.95106    0.95106   -1.9898     0.95106    0.95106    0.20681    6.        
 0.4        0.58779    0.58779    0.58779   -5.1575     0.58779    0.58779    0.28573    7.        
 0.5        0.         444.1E-18 -309.09f   -6.3675     0.         444.1E-18  0.31588    7.        
 0.6       -0.58779   -0.58779   -0.58779   -5.1575    -0.58779   -0.58779    0.28573    6.        
 0.7       -0.95106   -0.95106   -0.95106   -1.9898    -0.95106   -0.95106    0.20681    6.        
 0.8       -0.95106   -0.95106   -0.95106    1.9257    -0.95106   -0.95106    0.10926    6.        
 0.9       -0.58779   -0.58779   -0.58779    5.0933    -0.58779   -0.58779    0.030335   6.        
 1.         0.         333.1E-18 -1.8874f    6.3033    -1.8874f    333.1E-18  189.24u    6.        
Gnucap   System status
iterations: op=0, dc=0, tran=110, fourier=0, total=292
transient timesteps: accepted=58, rejected=14, total=72
nodes: user=1, subckt=0, model=2, total=3
dctran density=77.8%, ac density=77.8%
