module vsin (p,n);
  .parameter ampl 
  .parameter dc 
  vsource #(sin.offset(NA( 0.)), .amplitude(ampl), .frequency( 1.), .delay(NA( 0.)), .damping(NA( 0.))  DC dc) V1 (.p(p),.n(n));
endmodule // vsin

parameter r=1 
parameter v=0 
test_xdt1 #() dut (.p(1),.n(0),.ni(ii));
resistor #(.r(1.)) r1 (.p(ii),.n(0));
vsin #(.ampl(1),.dc(v)) v1 (.p(1),.n(0));
#Time       v(1)       v(r1)      iter(0)   
 0.         0.         0.         3.        
 0.1        0.58779    0.030281   55.       
 0.2        0.95106    0.1092     8.        
 0.3        0.95106    0.20676    8.        
 0.4        0.58779    0.28568    8.        
 0.5        0.         0.31582    8.        
 0.6       -0.58779    0.28643    4.        
 0.7       -0.95106    0.20949    4.        
 0.8       -0.95106    0.11439    4.        
 0.9       -0.58779    0.037444   4.        
 1.         0.         0.0072506  12.       
#Time       v(1)       v(r1)      iter(0)    ddtidt(dut) v(dut)     i(dut._b_ni_) i(dut._b_idt_0_p_idt_0_n) i(dut._b_ddt_1_p_ddt_1_n)
 0.         0.         0.         3.         0.         0.         0.         0.         0.        
 0.1        0.58779    0.030281   55.        0.58779    0.030281   0.         0.030281   0.58779   
 0.2        0.95106    0.1092     8.         0.95106    0.1092     0.         0.1092     0.95106   
 0.3        0.95106    0.20676    8.         0.95106    0.20676    0.         0.20676    0.95106   
 0.4        0.58779    0.28568    8.         0.58779    0.28568    0.         0.28568    0.58779   
 0.5        0.         0.31582    8.         3.5527f    0.31582    0.         0.31582    3.5527f   
 0.6       -0.58779    0.28643    4.        -0.58779    0.28643    0.         0.28643   -0.58779   
 0.7       -0.95106    0.20949    4.        -0.95106    0.20949    0.         0.20949   -0.95106   
 0.8       -0.95106    0.11439    4.        -0.95106    0.11439    0.         0.11439   -0.95106   
 0.9       -0.58779    0.037444   4.        -0.58779    0.037444   0.         0.037444  -0.58779   
 1.         0.         0.0072506  12.       -4.5519f    0.0072506  0.         0.0072506 -4.5519f   
Gnucap   System status
iterations: op=0, dc=0, tran=118, fourier=0, total=296
transient timesteps: accepted=52, rejected=8, total=60
nodes: user=2, subckt=0, model=0, total=2
dctran density=100.0%, ac density=100.0%
