parameter r=1 
parameter v=0 
test_ddt0 #() dut (.p(1),.n(0));
vsine #(.ampl(1),.dc(v)) v1 (.p(1),.n(0));
//exact 12.56637061435 
#Time       v(1)       i(dut._b_ddt_0_p_ddt_0_n) i(dut._b_ddt_1_p_ddt_1_n) i(dut._b_ddt_2_p_ddt_2_n) iter(0)    d1(dut)    d2(dut)    d3(dut)   
 0.         0.         0.         0.         0.         3.         0.         0.         0.        
 0.1        0.58779    10.945     5.4725     5.4725     30.        10.945     10.945     10.945    
 0.2        0.95106    4.6097     2.3048     2.3048     6.         4.6097     4.6097     4.6097    
 0.3        0.95106   -3.2213    -1.6106    -1.6106     6.        -3.2213    -3.2213    -3.2213    
 0.4        0.58779   -11.31     -5.6548    -5.6548     3.        -11.31     -11.31     -11.31     
 0.5       -7.f       -12.202    -6.1009    -6.1009     3.        -12.202    -12.202    -12.202    
 0.6       -0.58779   -9.782     -4.891     -4.891      6.        -9.782     -9.782     -9.782     
 0.7       -0.95106   -3.4466    -1.7233    -1.7233     6.        -3.4466    -3.4466    -3.4466    
 0.8       -0.95106    4.3844     2.1922     2.1922     6.         4.3844     4.3844     4.3844    
 0.9       -0.58779    10.146     5.0732     5.0732     3.         10.146     10.146     10.146    
 1.         14.f       13.365     6.6825     6.6825     3.         13.365     13.365     13.365    
#Time       v(1)       i(dut._b_ddt_0_p_ddt_0_n) i(dut._b_ddt_1_p_ddt_1_n) i(dut._b_ddt_2_p_ddt_2_n) iter(0)    d1(dut)    d2(dut)    d3(dut)   
 0.         0.         0.         0.         0.         3.         0.         0.         0.        
 0.1        0.58779    10.945     5.4725     5.4725     30.        10.945     10.945     10.945    
 0.2        0.95106    4.6097     2.3048     2.3048     6.         4.6097     4.6097     4.6097    
 0.3        0.95106   -3.2213    -1.6106    -1.6106     6.        -3.2213    -3.2213    -3.2213    
 0.4        0.58779   -11.31     -5.6548    -5.6548     3.        -11.31     -11.31     -11.31     
 0.5       -7.f       -12.202    -6.1009    -6.1009     3.        -12.202    -12.202    -12.202    
 0.6       -0.58779   -9.782     -4.891     -4.891      6.        -9.782     -9.782     -9.782     
 0.7       -0.95106   -3.4466    -1.7233    -1.7233     6.        -3.4466    -3.4466    -3.4466    
 0.8       -0.95106    4.3844     2.1922     2.1922     6.         4.3844     4.3844     4.3844    
 0.9       -0.58779    10.146     5.0732     5.0732     3.         10.146     10.146     10.146    
 1.         14.f       13.365     6.6825     6.6825     3.         13.365     13.365     13.365    
#Time       v(1)       i(dut._b_ddt_0_p_ddt_0_n) i(dut._b_ddt_1_p_ddt_1_n) i(dut._b_ddt_2_p_ddt_2_n) iter(0)    d1(dut)    d2(dut)    d3(dut)   
 0.         0.         0.         0.         0.         3.         0.         0.         0.        
 0.05       0.30902    12.155     6.0775     6.0775     30.        12.155     12.155     12.155    
 0.1        0.58779    10.186     5.0932     5.0932     5.         10.186     10.186     10.186    
 0.15       0.80902    7.5122     3.7561     3.7561     3.         7.5122     7.5122     7.5122    
 0.2        0.95106    3.851      1.9255     1.9255     3.         3.851      3.851      3.851     
 0.25       1.         0.064514   0.032257   0.032257   3.         0.064514   0.064514   0.064514  
 0.3        0.95106   -3.98      -1.99      -1.99       3.        -3.98      -3.98      -3.98      
 0.35       0.80902   -7.3832    -3.6916    -3.6916     3.        -7.3832    -7.3832    -7.3832    
 0.4        0.58779   -10.315    -5.1577    -5.1577     3.        -10.315    -10.315    -10.315    
 0.45       0.30902   -11.986    -5.993     -5.993      3.        -11.986    -11.986    -11.986    
 0.5       -8.f       -12.735    -6.3676    -6.3676     3.        -12.735    -12.735    -12.735    
#Time       v(1)       i(dut._b_ddt_0_p_ddt_0_n) i(dut._b_ddt_1_p_ddt_1_n) i(dut._b_ddt_2_p_ddt_2_n) iter(0)    d1(dut)    d2(dut)    d3(dut)   
 0.4        0.58779   -10.166    -5.0828    -5.0828     2.        -10.166    -10.166    -10.166    
 0.41       0.53583   -10.616    -5.308     -5.308      5.        -10.616    -10.616    -10.616    
 0.42       0.48175   -11.013    -5.5066    -5.5066     3.        -11.013    -11.013    -11.013    
 0.43       0.42578   -11.377    -5.6883    -5.6883     3.        -11.377    -11.377    -11.377    
 0.44       0.36812   -11.685    -5.8427    -5.8427     3.        -11.685    -11.685    -11.685    
 0.45       0.30902   -11.958    -5.9788    -5.9788     3.        -11.958    -11.958    -11.958    
 0.46       0.24869   -12.173    -6.0866    -6.0866     3.        -12.173    -12.173    -12.173    
 0.47       0.18738   -12.35     -6.1751    -6.1751     3.        -12.35     -12.35     -12.35     
 0.48       0.12533   -12.469    -6.2345    -6.2345     3.        -12.469    -12.469    -12.469    
 0.49       0.062791  -12.548    -6.2741    -6.2741     3.        -12.548    -12.548    -12.548    
 0.5       -8.f       -12.568    -6.284     -6.284      3.        -12.568    -12.568    -12.568    
Gnucap   System status
iterations: op=0, dc=0, tran=34, fourier=0, total=537
transient timesteps: accepted=107, rejected=28, total=135
nodes: user=1, subckt=0, model=1, total=2
dctran density=100.0%, ac density=100.0%
