#Time       dd(dut)    iter(0)   
 0.         0.         3.        
 2.n        6.2832     32.       
 3.n        6.2832     3.        
 0.035714   6.178      4.        
 0.071429   5.6583     4.        
 0.10714    4.9596     4.        
 0.16667    3.1896     4.        
 0.22619    0.93668    4.        
 0.28571   -1.4038     4.        
 0.375     -4.5954     4.        
 0.5       -6.7183     4.        
 0.57143   -5.4304     4.        
 0.625     -4.7699     4.        
 0.67857   -2.4676     4.        
 0.73214   -0.99481    4.        
 0.79911    2.2175     4.        
 0.89955    5.0048     4.        
 1.         6.7438     4.        
#Time                      v(1)                      v(3)                      iter(0)                  
 0.                        0.                        0.99999999999900008873    3.                       
 2.000000000000000444n     12.566370999999998403n    535.49165552087210073     32.000000000000001776    
 3.000000000000000444n     18.849555999999996203n    535.49165552086837038     3.                       
 0.035714289000000003504   0.22252095408346002081    482.02065518938610466     4.                       
 0.071428575000000007477   0.43388375933525304972    286.66951402446990471     4.                       
 0.10714286100000001145    0.62348982080653305715    142.53809884098266991     4.                       
 0.16666667100000001511    0.86602541739800802389    24.278390042126769543     4.                       
 0.22619048100000003209    0.98883083072905613164    2.5514841230272713445     4.                       
 0.28571429100000003131    0.97492790479165201134    0.24565835560927902214    4.                       
 0.37500000500000001402    0.70710675897212906804    0.010098380859866000758   4.                       
 0.50000000399999997569   -25.132747999999995869n    0.0012085566806230003678  4.                       
 0.57142857500000001635   -0.43388375933525900052    0.0043812720549030004235  4.                       
 0.62500000399999997569   -0.70710679895808503658    0.0084811386984970020819  4.                       
 0.67857143300000002383   -0.90096887997547003834    0.084787506529450009651   4.                       
 0.73214286199999998316   -0.99371221331021217793    0.36979344927286699196    4.                       
 0.79910714700000005095   -0.95277511481808403459    9.1840231699323666703     4.                       
 0.89955357400000011125   -0.59005221129271205882    149.11991563494555457     4.                       
 1.                        13.999999999999999111f    848.8178832775721716      4.                       
#Time                      v(1)                      v(3)                      iter(0)                  
 0.                        0.                        0.99999999999900008873    3.                       
 2.000000000000000444n     12.566370999999998403n    535.49165552087210073     32.000000000000001776    
 3.000000000000000444n     18.849555999999996203n    535.49165552086837038     3.                       
 0.035714289000000003504   0.22252095408346002081    482.02065209632198872     4.                       
 0.071428575000000007477   0.43388375933525304972    286.6695104376665526      4.                       
 0.10714286100000001145    0.62348982080653305715    142.53809627819123306     4.                       
 0.16666667100000001511    0.86602541739800802389    24.278389435799390128     4.                       
 0.22619048100000003209    0.98883083072905613164    2.5514840502614992701     4.                       
 0.28571429100000003131    0.97492790479165201134    0.24565834868824203418    4.                       
 0.37500000500000001402    0.70710675897212906804    0.010098380633202002076   4.                       
 0.50000000399999997569   -25.132747999999995869n    0.0012085566557560003531  4.                       
 0.57142857500000001635   -0.43388375933525900052    0.0043812720873529995557  4.                       
 0.62500000399999997569   -0.70710679895808503658    0.0084811388503489997248  4.                       
 0.67857143300000002383   -0.90096887997547003834    0.084787508715728989727   4.                       
 0.73214286199999998316   -0.99371221331021217793    0.36979345985585609923    4.                       
 0.79910714700000005095   -0.95277511481808403459    9.1840234222589405277     4.                       
 0.89955357400000011125   -0.59005221129271205882    149.11991817228454237     4.                       
 1.                        13.999999999999999111f    848.81788327756311218     4.                       
#Freq       vm(3)      vp(3)     
 1.         5.3333K    90.       
 2.         10.667K    90.       
 4.         21.333K    90.       
 8.         42.666K    90.       
 16.        85.332K    90.       
Gnucap   System status
iterations: op=0, dc=0, tran=98, fourier=0, total=374
transient timesteps: accepted=54, rejected=21, total=75
nodes: user=2, subckt=0, model=2, total=4
dctran density=75.0%, ac density=75.0%
