#Time       v(in)      v(out)     iter(0)   
 0.         0.         0.         3.        
 2.n        12.566n    6.2832     24.       
 3.n        18.85n     6.2832     3.        
 0.035714   0.22252    6.178      3.        
 0.071429   0.43388    5.6583     3.        
 0.10714    0.62349    4.9596     3.        
 0.16667    0.86603    3.1896     3.        
 0.22619    0.98883    0.93668    3.        
 0.28571    0.97493   -1.4038     3.        
 0.375      0.70711   -4.5954     3.        
 0.44955    0.31169   -6.0124     6.        
 0.5241    -0.15088   -6.3968     3.        
 0.57169   -0.43539   -5.5601     3.        
 0.61928   -0.68126   -4.773      3.        
 0.66687   -0.86667   -3.0192     3.        
 0.71446   -0.97518   -1.5406     3.        
 0.78585   -0.97474    1.5528     3.        
 0.85723   -0.78148    3.8618     3.        
 1.         14.f       7.0858     3.        
#Freq       vm(in)     vm(out)    vp(in)     vp(out)   
 1.         1.         6.2832     0.         90.       
 2.         1.         12.566     0.         90.       
 4.         1.         25.133     0.         90.       
 8.         1.         50.265     0.         90.       
 16.        1.         100.53     0.         90.       
Gnucap   System status
iterations: op=0, dc=0, tran=81, fourier=0, total=113
transient timesteps: accepted=19, rejected=8, total=27
nodes: user=2, subckt=0, model=2, total=4
dctran density=75.0%, ac density=75.0%
