#Time       v(in)      v(out)     iter(0)   
 0.         0.         0.         3.        
 2.n        12.566n    6.2831     32.       
 3.1n       19.478n    6.2831     3.        
 0.037037   0.23062    6.17       4.        
 0.074074   0.4488     5.6118     4.        
 0.11111    0.64279    4.8635     4.        
 0.17037    0.87743    3.0555     4.        
 0.22963    0.99182    0.80535    4.        
 0.28889    0.9703    -1.5318     4.        
 0.39048    0.63512   -5.067      4.        
 0.49206    0.049846  -6.4554     4.        
 0.55556   -0.34202   -5.8883     4.        
 0.61905   -0.68017   -4.7634     4.        
 0.68254   -0.91151   -2.5235     4.        
 0.74603   -0.99969   -0.25426    4.        
 0.80952   -0.93087    2.4219     4.        
 0.90476   -0.56332    5.2966     4.        
 1.         14.f       6.5329     4.        
#Freq       vm(in)     vm(out)    vp(in)     vp(out)   
 1.         1.         6.2829     0.         90.       
 2.         1.         12.566     0.         90.       
 4.         1.         25.132     0.         90.       
 8.         1.         50.263     0.         90.       
 16.        1.         100.53     0.         90.       
Gnucap   System status
iterations: op=0, dc=0, tran=98, fourier=0, total=128
transient timesteps: accepted=18, rejected=7, total=25
nodes: user=2, subckt=0, model=2, total=4
dctran density=75.0%, ac density=75.0%
