#Time       v(1)       v(3)       iter(0)   
 0.         0.         0.         3.        
 2.n        12.566n   -6.2832     24.       
 3.1n       19.478n   -6.2832     3.        
 1.0373u    6.5174u   -6.2832     3.        
 0.0012964  0.0081453 -6.283      3.        
 0.012152   0.076278  -6.2697     3.        
 0.041206   0.25602   -6.1034     3.        
 0.084788   0.50789   -5.4552     3.        
 0.12837    0.72192   -4.3666     3.        
 0.17195    0.88215   -2.9865     3.        
 0.24095    0.99839   -0.38255    3.        
 0.30996    0.92987    2.3684     3.        
 0.40854    0.54357    5.4692     3.        
 0.50711   -0.044681   6.4656     3.        
 0.56872   -0.41851    5.6697     3.        
 0.63034   -0.73041    4.455      3.        
 0.69195   -0.93421    2.1607     3.        
 0.75356   -0.99975   -0.033071   3.        
 0.81517   -0.91734   -2.6423     3.        
 0.90758   -0.54858   -5.338      3.        
 1.         0.        -6.534      3.        
#Freq       vm(1)      vm(3)      vp(1)      vp(3)     
 1.         1.         6.2832     0.        -90.       
 2.         1.         12.566     0.        -90.       
 4.         1.         25.133     0.        -90.       
 8.         1.         50.265     0.        -90.       
 16.        1.         100.53     0.        -90.       
Gnucap   System status
iterations: op=0, dc=0, tran=84, fourier=0, total=117
transient timesteps: accepted=21, rejected=7, total=28
nodes: user=2, subckt=0, model=0, total=2
dctran density=100.0%, ac density=100.0%
