#Time       dd(dut)    iter(0)   
 0.         0.         3.        
 1.6745n    6.2832     32.       
 2.7745n    6.2832     3.        
 0.021277   6.2458     4.        
 0.056231   5.9254     4.        
 0.091185   5.2947     4.        
 0.14799    3.8395     4.        
 0.20479    1.738      4.        
 0.26159   -0.42007    4.        
 0.34363   -3.6137     4.        
 0.50773   -7.1169     4.        
 0.58977   -4.7324     4.        
 0.64838   -4.4261     4.        
 0.70698   -1.0587     4.        
 0.76558   -0.017056   4.        
 0.84372    4.2056     4.        
 1.         6.4366     4.        
#Time       v(1)       v(3)       iter(0)   
 0.         0.         1.         3.        
 1.6745n    10.521n    535.49     32.       
 2.7745n    17.433n    535.49     3.        
 0.021277   0.13329    515.84     4.        
 0.056231   0.34601    374.42     4.        
 0.091185   0.5421     199.27     4.        
 0.14799    0.80152    46.502     4.        
 0.20479    0.95992    5.6861     4.        
 0.26159    0.99735    0.657      4.        
 0.34363    0.83187    0.026952   4.        
 0.50773   -0.048521   811.3u     4.        
 0.58977   -0.53461    0.0088053  4.        
 0.64838   -0.80297    0.011961   4.        
 0.70698   -0.96369    0.34692    4.        
 0.76558   -0.99521    0.98309    4.        
 0.84372   -0.83157    67.061     4.        
 1.         14.f       624.25     4.        
#Freq       vm(3)      vp(3)     
 1.         3.9223K    90.       
 2.         7.8446K    90.       
 4.         15.689K    90.       
 8.         31.378K    90.       
 16.        62.757K    90.       
Gnucap   System status
iterations: op=0, dc=0, tran=94, fourier=0, total=241
transient timesteps: accepted=34, rejected=14, total=48
nodes: user=2, subckt=0, model=2, total=4
dctran density=75.0%, ac density=75.0%
