#Time       dd(dut)    iter(0)   
 0.         0.         3.        
 2.n        6.2832     32.       
 3.1n       6.2832     3.        
 0.037037   6.1701     4.        
 0.074074   5.6118     4.        
 0.11111    4.8635     4.        
 0.17037    3.0555     4.        
 0.22963    0.80535    4.        
 0.28889   -1.5318     4.        
 0.39048   -5.067      4.        
 0.49206   -6.4555     4.        
 0.55556   -5.8883     4.        
 0.61905   -4.7635     4.        
 0.68254   -2.5235     4.        
 0.74603   -0.25426    4.        
 0.80952    2.4219     4.        
 0.90476    5.2967     4.        
 1.         6.533      4.        
#Time       v(1)       v(3)       iter(0)   
 0.         0.         1.         3.        
 2.n        12.566n    535.49     32.       
 3.1n       19.478n    535.49     3.        
 0.037037   0.23062    478.22     4.        
 0.074074   0.4488     273.64     4.        
 0.11111    0.64279    129.48     4.        
 0.17037    0.87743    21.231     4.        
 0.22963    0.99182    2.2375     4.        
 0.28889    0.9703     0.21614    4.        
 0.39048    0.63512    0.006301   4.        
 0.49206    0.049846   0.0015719  4.        
 0.55556   -0.34202    0.0027716  4.        
 0.61905   -0.68017    0.0085358  4.        
 0.68254   -0.91151    0.080178   4.        
 0.74603   -0.99969    0.77549    4.        
 0.80952   -0.93087    11.268     4.        
 0.90476   -0.56332    199.67     4.        
 1.         14.f       687.49     4.        
#Freq       vm(3)      vp(3)     
 1.         4.3196K    90.       
 2.         8.6392K    90.       
 4.         17.278K    90.       
 8.         34.557K    90.       
 16.        69.114K    90.       
Gnucap   System status
iterations: op=0, dc=0, tran=98, fourier=0, total=251
transient timesteps: accepted=36, rejected=14, total=50
nodes: user=2, subckt=0, model=2, total=4
dctran density=75.0%, ac density=75.0%
