parameter r=1 
parameter v=0 
test_ddt0 #() dut (.p(1),.n(0));
vsine #(.ampl(1),.dc(v)) v1 (.p(1),.n(0));
#Time       v(1)       i(dut._b_ddt_0_p_ddt_0_n) iter(0)   
 0.         0.         0.         3.        
 0.1        0.58779    10.2       42.       
 0.2        0.95106    3.8644     6.        
 0.3        0.95106   -3.9666     6.        
 0.4        0.58779   -10.564     3.        
 0.5       -7.f       -12.947     3.        
 0.6       -0.58779   -9.9856     9.        
 0.7       -0.95106   -3.6503     6.        
 0.8       -0.95106    4.1807     6.        
 0.9       -0.58779    10.35      3.        
 1.         13.f       13.161     3.        
#Time       v(1)       i(dut._b_ddt_0_p_ddt_0_n) iter(0)    dv(dut)   
 0.         0.         0.         3.         0.        
 0.1        0.58779    10.2       42.        10.2      
 0.2        0.95106    3.8644     6.         3.8644    
 0.3        0.95106   -3.9666     6.        -3.9666    
 0.4        0.58779   -10.564     3.        -10.564    
 0.5       -7.f       -12.947     3.        -12.947    
 0.6       -0.58779   -9.9856     9.        -9.9856    
 0.7       -0.95106   -3.6503     6.        -3.6503    
 0.8       -0.95106    4.1807     6.         4.1807    
 0.9       -0.58779    10.35      3.         10.35     
 1.         13.f       13.161     3.         13.161    
Gnucap   System status
iterations: op=0, dc=0, tran=90, fourier=0, total=240
transient timesteps: accepted=46, rejected=14, total=60
nodes: user=1, subckt=0, model=1, total=2
dctran density=100.0%, ac density=100.0%
