#Time       v(1)       v(3)       iter(0)   
 0.         0.        -1.         3.        
 1.6745n    10.521n   -535.49     32.       
 2.7745n    17.433n   -535.49     4.        
 1.037u     6.5154u   -535.49     4.        
 0.001293   0.0081242 -535.42     4.        
 0.012149   0.076257  -528.31     4.        
 0.041203   0.256     -447.37     4.        
 0.084785   0.50788   -233.98     4.        
 0.12837    0.7219    -78.779     4.        
 0.17195    0.88214   -19.819     4.        
 0.24095    0.99838   -1.4662     4.        
 0.30996    0.92988   -0.093643   4.        
 0.40853    0.54358   -0.0042148  4.        
 0.50711   -0.044671  -0.001556   4.        
 0.56872   -0.41851   -0.0034489  4.        
 0.63033   -0.7304    -0.01162    4.        
 0.69194   -0.93421   -0.11524    4.        
 0.75356   -0.99975   -1.0336     4.        
 0.81517   -0.91734   -14.045     4.        
 0.90758   -0.54858   -208.1      4.        
 1.         0.        -688.14     4.        
#Freq       vm(3)      vp(3)     
 1.         4.3237K   -90.       
 2.         8.6474K   -90.       
 4.         17.295K   -90.       
 8.         34.589K   -90.       
 16.        69.179K   -90.       
Gnucap   System status
iterations: op=0, dc=0, tran=111, fourier=0, total=144
transient timesteps: accepted=21, rejected=7, total=28
nodes: user=2, subckt=0, model=1, total=3
dctran density=100.0%, ac density=100.0%
