parameter r=1 
parameter v=0 
test_ddt0 #() dut (.p(1),.n(0));
vsine #(.ampl(1),.dc(v)) v1 (.p(1),.n(0));
#Time       v(1)       i(dut._b_ddt_0_p_ddt_0_n) i(dut._b_ddt_1_p_ddt_1_n) i(dut._b_ddt_2_p_ddt_2_n) iter(0)    d1(dut)    d2(dut)    d3(dut)   
 0.         0.         0.         0.         0.         3.         0.         0.         0.        
 0.1        0.58779    10.2       5.0999     5.0999     42.        10.2       10.2       10.2      
 0.2        0.95106    3.8644     1.9322     1.9322     6.         3.8644     3.8644     3.8644    
 0.3        0.95106   -3.9666    -1.9833    -1.9833     6.        -3.9666    -3.9666    -3.9666    
 0.4        0.58779   -10.564    -5.2821    -5.2821     3.        -10.564    -10.564    -10.564    
 0.5       -7.f       -12.947    -6.4736    -6.4736     3.        -12.947    -12.947    -12.947    
 0.6       -0.58779   -9.9856    -4.9928    -4.9928     9.        -9.9856    -9.9856    -9.9856    
 0.7       -0.95106   -3.6503    -1.8251    -1.8251     6.        -3.6503    -3.6503    -3.6503    
 0.8       -0.95106    4.1807     2.0903     2.0903     6.         4.1807     4.1807     4.1807    
 0.9       -0.58779    10.35      5.1751     5.1751     3.         10.35      10.35      10.35     
 1.         13.f       13.161     6.5806     6.5806     3.         13.161     13.161     13.161    
#Time       v(1)       i(dut._b_ddt_0_p_ddt_0_n) i(dut._b_ddt_1_p_ddt_1_n) i(dut._b_ddt_2_p_ddt_2_n) iter(0)    d1(dut)    d2(dut)    d3(dut)   
 0.         0.         0.         0.         0.         3.         0.         0.         0.        
 0.1        0.58779    10.2       5.0999     5.0999     42.        10.2       10.2       10.2      
 0.2        0.95106    3.8644     1.9322     1.9322     6.         3.8644     3.8644     3.8644    
 0.3        0.95106   -3.9666    -1.9833    -1.9833     6.        -3.9666    -3.9666    -3.9666    
 0.4        0.58779   -10.564    -5.2821    -5.2821     3.        -10.564    -10.564    -10.564    
 0.5       -7.f       -12.947    -6.4736    -6.4736     3.        -12.947    -12.947    -12.947    
 0.6       -0.58779   -9.9856    -4.9928    -4.9928     9.        -9.9856    -9.9856    -9.9856    
 0.7       -0.95106   -3.6503    -1.8251    -1.8251     6.        -3.6503    -3.6503    -3.6503    
 0.8       -0.95106    4.1807     2.0903     2.0903     6.         4.1807     4.1807     4.1807    
 0.9       -0.58779    10.35      5.1751     5.1751     3.         10.35      10.35      10.35     
 1.         13.f       13.161     6.5806     6.5806     3.         13.161     13.161     13.161    
Gnucap   System status
iterations: op=0, dc=0, tran=90, fourier=0, total=240
transient timesteps: accepted=46, rejected=14, total=60
nodes: user=1, subckt=0, model=1, total=2
dctran density=100.0%, ac density=100.0%
