#Time       v(in)      v(out)     iter(0)   
 0.         0.         0.         3.        
 1.6745n    10.521n    6.2832     24.       
 2.7745n    17.433n    6.2832     3.        
 0.021277   0.13329    6.2458     3.        
 0.056231   0.34601    5.9254     3.        
 0.091185   0.5421     5.2947     3.        
 0.14799    0.80152    3.8395     3.        
 0.20479    0.95992    1.738      3.        
 0.26159    0.99735   -0.42007    3.        
 0.34363    0.83187   -3.6137     3.        
 0.50773   -0.048521  -7.1169     3.        
 0.58977   -0.53461   -4.7324     3.        
 0.64838   -0.80297   -4.4261     3.        
 0.70698   -0.96369   -1.0587     3.        
 0.76558   -0.99521   -0.017056   3.        
 0.84372   -0.83157    4.2056     3.        
 1.         14.f       6.4366     3.        
#Freq       vm(in)     vm(out)    vp(in)     vp(out)   
 1.         1.         6.2832     0.         90.       
 2.         1.         12.566     0.         90.       
 4.         1.         25.133     0.         90.       
 8.         1.         50.265     0.         90.       
 16.        1.         100.53     0.         90.       
Gnucap   System status
iterations: op=0, dc=0, tran=72, fourier=0, total=101
transient timesteps: accepted=17, rejected=7, total=24
nodes: user=2, subckt=0, model=2, total=4
dctran density=75.0%, ac density=75.0%
