#Time       v(1)       v(3)       iter(0)   
 0.         0.         0.         3.        
 2.n        12.566n    6.2832     24.       
 3.n        18.85n     6.2832     3.        
 0.035714   0.22252    6.178      3.        
 0.071429   0.43388    5.6583     3.        
 0.10714    0.62349    4.9596     3.        
 0.16667    0.86603    3.1896     3.        
 0.22619    0.98883    0.93668    3.        
 0.28571    0.97493   -1.4038     3.        
 0.375      0.70711   -4.5954     3.        
 0.5       -25.133n   -6.7183     3.        
 0.57143   -0.43388   -5.4304     3.        
 0.625     -0.70711   -4.7699     3.        
 0.67857   -0.90097   -2.4676     3.        
 0.73214   -0.99371   -0.99481    3.        
 0.79911   -0.95278    2.2175     3.        
 0.89955   -0.59005    5.0048     3.        
 1.         14.f       6.7438     3.        
#Freq       vm(1)      vm(3)      vp(1)      vp(3)     
 1.         1.         6.2832     0.         90.       
 2.         1.         12.566     0.         90.       
 4.         1.         25.133     0.         90.       
 8.         1.         50.265     0.         90.       
 16.        1.         100.53     0.         90.       
#Time       v(1)       v(3)       iter(0)   
 0.         0.         0.         3.        
 2.n        12.566n    6.2832     24.       
 3.n        18.85n     6.2832     3.        
 0.035714   0.22252    6.178      3.        
 0.071429   0.43388    5.6583     3.        
 0.10714    0.62349    4.9596     3.        
 0.16667    0.86603    3.1896     3.        
 0.22619    0.98883    0.93668    3.        
 0.28571    0.97493   -1.4038     3.        
 0.375      0.70711   -4.5954     3.        
 0.5       -25.133n   -6.7183     3.        
 0.57143   -0.43388   -5.4304     3.        
 0.625     -0.70711   -4.7699     3.        
 0.67857   -0.90097   -2.4676     3.        
 0.73214   -0.99371   -0.99481    3.        
 0.79911   -0.95278    2.2175     3.        
 0.89955   -0.59005    5.0048     3.        
 1.         14.f       6.7438     3.        
Gnucap   System status
iterations: op=0, dc=0, tran=75, fourier=0, total=205
transient timesteps: accepted=36, rejected=14, total=50
nodes: user=2, subckt=0, model=1, total=3
dctran density=77.8%, ac density=77.8%
