#Time       v(1)       v(3)       loss(dut._b_ddt_1_p_ddt_1_n) i(dut._b_ddt_1_p_ddt_1_n) dd(dut)    iter(0)   
 0.         0.        -1.         1.         0.         0.         3.        
 1.6745n    10.521n   -535.49     1.         6.2832     6.2832     32.       
 2.7745n    17.433n   -535.49     1.         6.2832     6.2832     4.        
 1.037u     6.5154u   -535.49     1.         6.2832     6.2832     4.        
 0.001293   0.0081242 -535.42     1.         6.283      6.283      4.        
 0.012149   0.076257  -528.31     1.         6.2697     6.2697     4.        
 0.041203   0.256     -447.37     1.         6.1034     6.1034     4.        
 0.084785   0.50788   -233.98     1.         5.4553     5.4553     4.        
 0.12837    0.7219    -78.779     1.         4.3666     4.3666     4.        
 0.17195    0.88214   -19.819     1.         2.9866     2.9866     4.        
 0.24095    0.99838   -1.4662     1.         0.38265    0.38265    4.        
 0.30996    0.92988   -0.093643   1.        -2.3683    -2.3683     4.        
 0.40853    0.54358   -0.0042148  1.        -5.4692    -5.4692     4.        
 0.50711   -0.044671  -0.001556   1.        -6.4656    -6.4656     4.        
 0.56872   -0.41851   -0.0034489  1.        -5.6697    -5.6697     4.        
 0.63033   -0.7304    -0.01162    1.        -4.455     -4.455      4.        
 0.69194   -0.93421   -0.11524    1.        -2.1607    -2.1607     4.        
 0.75356   -0.99975   -1.0336     1.         0.033036   0.033036   4.        
 0.81517   -0.91734   -14.045     1.         2.6422     2.6422     4.        
 0.90758   -0.54858   -208.1      1.         5.338      5.338      4.        
 1.         0.        -688.14     1.         6.534      6.534      4.        
#Freq       vm(3)      vp(3)     
 1.         4.3237K    90.       --??
 2.         8.6474K    90.       
 4.         17.295K    90.       
 8.         34.589K    90.       
 16.        69.179K    90.       
Gnucap   System status
iterations: op=0, dc=0, tran=111, fourier=0, total=144
transient timesteps: accepted=21, rejected=7, total=28
nodes: user=2, subckt=0, model=1, total=3
dctran density=100.0%, ac density=100.0%
