#Time       v(1)       v(3)       iter(0)   
 0.         0.         0.         3.        
 2.n        12.566n   -6.2832     24.       
 3.n        18.85n    -6.2832     3.        
 1.037u     6.5157u   -6.2832     3.        
 0.0013031  0.0081876 -6.283      3.        
 0.012159   0.07632   -6.2697     3.        
 0.041213   0.25606   -6.1033     3.        
 0.084794   0.50793   -5.4551     3.        
 0.12838    0.72194   -4.3664     3.        
 0.17196    0.88216   -2.9863     3.        
 0.24096    0.99839   -0.38234    3.        
 0.30996    0.92986    2.3685     3.        
 0.40854    0.54355    5.4693     3.        
 0.50712   -0.044702   6.4656     3.        
 0.56873   -0.41853    5.6696     3.        
 0.63034   -0.73042    4.4549     3.        
 0.69195   -0.93421    2.1606     3.        
 0.75356   -0.99975   -0.033144   3.        
 0.81517   -0.91733   -2.6423     3.        
 0.87678   -0.69916   -4.4401     3.        
 0.93839   -0.37751   -6.0011     3.        
 1.         0.        -6.2537     3.        
#Freq       vm(1)      vm(3)      vp(1)      vp(3)     
 1.         1.         6.2832     0.        -90.       
 2.         1.         12.566     0.        -90.       
 4.         1.         25.133     0.        -90.       
 8.         1.         50.265     0.        -90.       
 16.        1.         100.53     0.        -90.       
Gnucap   System status
iterations: op=0, dc=0, tran=87, fourier=0, total=121
transient timesteps: accepted=22, rejected=7, total=29
nodes: user=2, subckt=0, model=0, total=2
dctran density=100.0%, ac density=100.0%
