parameter r=1 
parameter v=0 
test_ddt0a #() dut (.p(1),.n(0));
vsine #(.ampl(1),.dc(v)) v1 (.p(1),.n(0));
#Time       v(1)       dv(dut)    i(dut._b_ddt_0_p_ddt_0_n) iter(0)   
 0.         0.         0.         0.         3.        
 167.45p    1.0521n    12.566     6.2832     24.       
 277.45p    1.7433n    12.566     6.2832     3.        
 0.0033333  0.020942   12.565     6.2823     3.        
 0.019444   0.12187    12.493     6.2466     3.        
 0.046296   0.2868     12.076     6.0381     3.        
 0.073148   0.44359    11.28      5.64       3.        
 0.1        0.58779    10.2       5.0999     3.        
 0.15       0.80902    7.4988     3.7494     3.        
 0.2        0.95106    3.8644     1.9322     3.        
 0.25       1.         0.051077   0.025539   3.        
 0.3        0.95106   -3.9666    -1.9833     3.        
 0.4        0.58779   -10.564    -5.2821     3.        
 0.5       -7.f       -12.947    -6.4736     3.        
 0.55      -0.30902   -11.774    -5.8871     3.        
 0.575     -0.45399   -11.422    -5.7108     3.        
 0.6       -0.58779   -9.9856    -4.9928     3.        
 0.65      -0.80902   -7.7129    -3.8564     3.        
 0.7       -0.95106   -3.6503    -1.8251     3.        
 0.75      -1.        -0.26521   -0.13261    3.        
 0.8       -0.95106    4.1807     2.0903     3.        
 0.9       -0.58779    10.35      5.1751     3.        
 1.         13.f       13.161     6.5806     3.        
Gnucap   System status
iterations: op=0, dc=0, tran=90, fourier=0, total=120
transient timesteps: accepted=23, rejected=7, total=30
nodes: user=1, subckt=0, model=1, total=2
dctran density=100.0%, ac density=100.0%
