#Time       v(in)      v(out)     iter(0)   
 0.         0.         0.         3.        
 2.n        12.566n    6.2832     24.       
 3.1n       19.478n    6.2832     3.        
 0.037037   0.23062    6.1701     3.        
 0.074074   0.4488     5.6118     3.        
 0.11111    0.64279    4.8635     3.        
 0.17037    0.87743    3.0555     3.        
 0.22963    0.99182    0.80535    3.        
 0.28889    0.9703    -1.5318     3.        
 0.39048    0.63512   -5.067      3.        
 0.49206    0.049846  -6.4555     3.        
 0.55556   -0.34202   -5.8883     3.        
 0.61905   -0.68017   -4.7635     3.        
 0.68254   -0.91151   -2.5235     3.        
 0.74603   -0.99969   -0.25426    3.        
 0.80952   -0.93087    2.4219     3.        
 0.90476   -0.56332    5.2967     3.        
 1.         14.f       6.533      3.        
#Freq       vm(in)     vm(out)    vp(in)     vp(out)   
 1.         1.         6.2832     0.         90.       
 2.         1.         12.566     0.         90.       
 4.         1.         25.133     0.         90.       
 8.         1.         50.265     0.         90.       
 16.        1.         100.53     0.         90.       
Gnucap   System status
iterations: op=0, dc=0, tran=75, fourier=0, total=105
transient timesteps: accepted=18, rejected=7, total=25
nodes: user=2, subckt=0, model=2, total=4
dctran density=75.0%, ac density=75.0%
