#Time       v(in)      v(out)     iter(0)   
 0.         0.         0.         3.        
 2.n        12.566n    6.2831     32.       
 3.n        18.85n     6.2831     3.        
 0.035714   0.22252    6.1779     4.        
 0.071429   0.43388    5.6583     4.        
 0.10714    0.62349    4.9596     4.        
 0.16667    0.86603    3.1896     4.        
 0.22619    0.98883    0.93667    4.        
 0.28571    0.97493   -1.4038     4.        
 0.375      0.70711   -4.5953     4.        
 0.5       -25.133n   -6.7182     4.        
 0.57143   -0.43388   -5.4304     4.        
 0.625     -0.70711   -4.7699     4.        
 0.67857   -0.90097   -2.4676     4.        
 0.73214   -0.99371   -0.99481    4.        
 0.79911   -0.95278    2.2175     4.        
 0.89955   -0.59005    5.0047     4.        
 1.         14.f       6.7437     4.        
#Freq       vm(in)     vm(out)    vp(in)     vp(out)   
 1.         1.         6.2829     0.         90.       
 2.         1.         12.566     0.         90.       
 4.         1.         25.132     0.         90.       
 8.         1.         50.263     0.         90.       
 16.        1.         100.53     0.         90.       
Gnucap   System status
iterations: op=0, dc=0, tran=98, fourier=0, total=128
transient timesteps: accepted=18, rejected=7, total=25
nodes: user=2, subckt=0, model=2, total=4
dctran density=75.0%, ac density=75.0%
