#Time       v(1)       v(3)      
 0.         0.         0.        
 1.6745n    10.521n   -6.2832    
 2.7745n    17.433n   -6.2832    
 1.037u     6.5154u   -6.2832    
 0.001293   0.0081242 -6.283     
 0.012149   0.076257  -6.2697    
 0.041203   0.256     -6.1034    
 0.084785   0.50788   -5.4553    
 0.12837    0.7219    -4.3666    
 0.17195    0.88214   -2.9866    
 0.24095    0.99838   -0.38265   
 0.30996    0.92988    2.3683    
 0.40853    0.54358    5.4692    
 0.50711   -0.044671   6.4656    
 0.56872   -0.41851    5.6697    
 0.63033   -0.7304     4.455     
 0.69194   -0.93421    2.1607    
 0.75356   -0.99975   -0.033036  
 0.81517   -0.91734   -2.6422    
 0.90758   -0.54858   -5.338     
 1.         0.        -6.534     
Gnucap   System status
iterations: op=0, dc=0, tran=84, fourier=0, total=112
transient timesteps: accepted=21, rejected=7, total=28
nodes: user=2, subckt=0, model=1, total=3
dctran density=100.0%, ac density=100.0%
