#Time       v(in)      v(r)       iter(0)   
 0.         0.         0.         3.        
 1.n        6.2832n    0.0062832  32.       
 1.5n       9.4248n    0.0062832  3.        
 2.n        12.566n    0.0062832  3.        
 2.5n       15.708n    0.0062832  3.        
 3.n        18.85n     0.0062832  3.        
 1.427u     8.9661u    0.0062832  3.        
 9.314u     58.522u    0.0062832  3.        
 83.651u    525.6u     0.0062832  3.        
 0.0015759  0.0099018  0.006283   3.        
 0.010806   0.067844   0.0062721  4.        
 0.037983   0.2364     0.0061318  4.        
 0.079985   0.48167    0.0055474  4.        
 0.12199    0.69359    0.0045437  4.        
 0.18499    0.91773    0.0025714  4.        
 0.24799    0.99992    37.819u    4.        
 0.31099    0.92746   -0.002338   4.        
 0.374      0.71156   -0.0045159  4.        
 0.437      0.3856    -0.0058317  4.        
 0.5       -7.f       -0.0064091  4.        
Gnucap   System status
iterations: op=0, dc=0, tran=99, fourier=0, total=126
transient timesteps: accepted=20, rejected=7, total=27
nodes: user=2, subckt=0, model=1, total=3
dctran density=77.8%, ac density=77.8%
