load ../lang_verilog.so 
     ^ ? "../lang_verilog.so": already loaded, replacing
.is= 0.; 
^ ? .is: no match
.pb= 0.7; 
^ ? .pb: no match
.cgso= 218.971p; 
^ ? .cgso: no match
.cgdo= 218.971p; 
^ ? .cgdo: no match
.cgbo= 0.; 
^ ? .cgbo: no match
.rsh= 0.; 
^ ? .rsh: no match
.cj= 384.4u; 
^ ? .cj: no match
.mj= 0.4884; 
^ ? .mj: no match
.cjsw= 527.2p; 
^ ? .cjsw: no match
.mjsw= 0.3002; 
^ ? .mjsw: no match
.js= 0.; 
^ ? .js: no match
.tox= 41.8n; 
^ ? .tox: no match
.nsub= 15.3142E+15; 
^ ? .nsub: no match
.nss= 1.E+12; 
^ ? .nss: no match
.tpg=1; 
^ ? .tpg: no match
.xj= 400.n; 
^ ? .xj: no match
.ld= 265.073n.; 
^ ? .ld: no match
.uo= 503.521; 
^ ? .uo: no match
.kf= 0.; 
^ ? .kf: no match
.af= 1.; 
^ ? .af: no match
.fc= 0.5; 
^ ? .fc: no match
endparamset 
^ ? endparamset: no match
paramset cmosp mos1;
  parameter w = 0; 
  parameter l = 0; 
  parameter nrd = 0; 
  parameter nrs = 0; 
 .gamma=0.863074; .kp=41.5964u; .length=l; .level=1; .phi=0.6; .vto=-0.844345; .width=w;
endparamset

//.cbs= 0. 
// .rd= 0. 
// .rs= 0. 
#           v(2)       v(3)       v(4)       iter(0)   
 0.         0.         0.         0.         0.        
-1.        -5.        -5.         0.         1.        
open circuit: internal node 8
-2.         0.        -5.         4.9741     2.        
-3.         0.        -5.         4.9483     3.        
-4.        -2.f       -5.         4.9224     4.        
-5.        -6.f       -5.         4.8965     5.        
-6.        -19.f      -5.         4.8707     6.        
-7.        -19.f      -5.         4.8448     7.        
-8.        -19.f      -5.         4.819      8.        
-9.        -22.f      -5.         4.7931     9.        
-10.       -31.f      -5.         4.7672     10.       
-11.       -53.f      -5.         4.7414     11.       
-12.       -110.f     -5.         4.7155     12.       
-13.       -266.f     -5.         4.6896     13.       
-14.       -693.f     -5.         4.6638     14.       
-15.       -1.847p    -5.         4.6379     15.       
-16.       -4.963p    -5.         4.612      16.       
-17.       -13.377p   -5.         4.5862     17.       
-18.       -36.113p   -5.         4.5603     18.       
-19.       -97.556p   -5.         4.5344     19.       
-20.       -263.58p   -5.         4.5086     20.       
-21.       -712.19p   -5.         4.4827     21.       
-22.       -1.9243n   -5.         4.4569     22.       
-23.       -5.1993n   -5.         4.431      23.       
-24.       -14.048n   -5.         4.4051     24.       
-25.       -37.952n   -5.         4.3793     25.       
-26.       -102.53n   -5.         4.3534     26.       
-27.       -276.99n   -5.         4.3275     27.       
-28.       -748.28n   -5.         4.3017     28.       
-29.       -2.0214u   -5.         4.2758     29.       
-30.       -5.4603u   -5.         4.2499     30.       
-31.       -14.75u    -5.         4.2241     31.       
-32.       -39.85u    -5.         4.1982     32.       
-33.       -107.7u    -5.         4.1722     33.       
-34.       -291.43u   -5.         4.1462     34.       
-35.       -791.07u   -5.         4.1198     35.       
-36.       -0.0021662 -5.         4.0926     36.       
-37.       -0.0060782 -5.         4.0628     37.       
-38.       -0.018327  -5.         4.0247     38.       
-39.       -0.070706  -5.         3.9465     39.       
-40.       -0.90381   -5.         3.0875     40.       
-41.       -3.7896    -5.         0.17587    41.       
-42.       -3.7637    -5.         0.17587    42.       
-43.       -3.7378    -5.         0.17587    43.       
-44.       -3.712     -5.         0.17587    44.       
-45.       -3.6861    -5.         0.17587    45.       
-46.       -3.6602    -5.         0.17587    46.       
-47.       -3.6344    -5.         0.17587    47.       
-48.       -3.6085    -5.         0.17587    48.       
-49.       -3.5826    -5.         0.17587    49.       
-50.       -3.5568    -5.         0.17587    50.       
-51.       -3.5309    -5.         0.17587    51.       
-52.       -3.5051    -5.         0.17587    52.       
-53.       -3.4792    -5.         0.17587    53.       
-54.       -3.4533    -5.         0.17587    54.       
-55.       -3.4275    -5.         0.17587    55.       
-56.       -3.4016    -5.         0.17587    56.       
-57.       -3.3757    -5.         0.17587    57.       
-58.       -3.3499    -5.         0.17587    58.       
-59.       -3.324     -5.         0.17587    59.       
-60.       -3.2981    -5.         0.17587    60.       
-61.       -3.2723    -5.         0.17587    61.       
-62.       -3.2464    -5.         0.17587    62.       
-63.       -3.2206    -5.         0.17587    63.       
-64.       -3.1947    -5.         0.17587    64.       
-65.       -3.1688    -5.         0.17587    65.       
-66.       -3.143     -5.         0.17587    66.       
-67.       -3.1171    -5.         0.17587    67.       
-68.       -3.0912    -5.         0.17587    68.       
-69.       -3.0654    -5.         0.17587    69.       
-70.       -3.0395    -5.         0.17587    70.       
-71.       -3.0136    -5.         0.17587    71.       
-72.       -2.9878    -5.         0.17587    72.       
-73.       -2.9619    -5.         0.17587    73.       
-74.       -2.936     -5.         0.17587    74.       
-75.       -2.9102    -5.         0.17587    75.       
-76.       -2.8843    -5.         0.17587    76.       
-77.       -2.8585    -5.         0.17587    77.       
-78.       -2.8326    -5.         0.17587    78.       
-79.       -2.8067    -5.         0.17587    79.       
-80.       -2.7809    -5.         0.17587    80.       
-81.       -2.755     -5.         0.17587    81.       
-82.       -2.7291    -5.         0.17587    82.       
-83.       -2.7033    -5.         0.17587    83.       
-84.       -2.6774    -5.         0.17587    84.       
-85.       -2.6515    -5.         0.17587    85.       
-86.       -2.6257    -5.         0.17587    86.       
-87.       -2.5998    -5.         0.17587    87.       
-88.       -2.5739    -5.         0.17587    88.       
-89.       -2.5481    -5.         0.17587    89.       
-90.       -2.5222    -5.         0.17587    90.       
-91.       -2.4964    -5.         0.17587    91.       
-92.       -2.4705    -5.         0.17587    92.       
-93.       -2.4446    -5.         0.17587    93.       
-94.       -2.4188    -5.         0.17587    94.       
-95.       -2.3929    -5.         0.17587    95.       
-96.       -2.367     -5.         0.17587    96.       
-97.       -2.3412    -5.         0.17587    97.       
-98.       -2.3153    -5.         0.17587    98.       
-99.       -2.2894    -5.         0.17587    99.       
-100.      -2.2636    -5.         0.17587    100.      
 0.        -2.2377    -5.         0.17587    101.      
open circuit: internal node 8
-1.        -43.98E+24 -4.398E+15 -43.98E+24  102.      
-2.         50.G       0.         0.15       103.      
-3.         50.G       1.n        0.16501    104.      
-4.         50.G       1.n        0.17074    105.      
-5.         50.G       1.n        0.17323    106.      
-6.         50.G       1.n        0.17427    107.      
-7.        -49.999u   -5.         0.         108.      
-8.        -49.999u   -5.         0.         109.      
 0.        -49.999u   -5.         0.         110.      
 0.        -49.999u   -5.         0.         111.      
 0.        -49.999u   -5.         0.         112.      
 0.        -49.999u   -5.         0.         113.      
 0.        -49.999u   -5.         0.         114.      
 0.        -49.999u   -5.         0.         115.      
 0.        -49.999u   -5.         0.         116.      
 0.        -49.999u   -5.         0.         117.      
 0.        -49.999u   -5.         0.         118.      
 0.        -49.999u   -5.         0.         119.      
 0.        -49.999u   -5.         0.         120.      
 0.        -49.999u   -5.         0.         121.      
 0.        -49.999u   -5.         0.         122.      
 0.        -49.999u   -5.         0.         123.      
 0.        -49.999u   -5.         0.         124.      
 0.        -49.999u   -5.         0.         125.      
 0.        -49.999u   -5.         0.         126.      
 0.        -49.999u   -5.         0.         127.      
 0.        -49.999u   -5.         0.         128.      
 0.        -49.999u   -5.         0.         129.      
-1.        -5.        -5.         0.         130.      
open circuit: internal node 8
-2.         0.        -5.         4.9741     131.      
-3.         0.        -5.         4.9483     132.      
-4.         0.        -5.         4.9224     133.      
-5.        -3.f       -5.         4.8965     134.      
-6.        -6.f       -5.         4.8707     135.      
-7.        -4.f       -5.         4.8448     136.      
-8.        -5.f       -5.         4.819      137.      
-9.        -8.f       -5.         4.7931     138.      
-10.       -18.f      -5.         4.7672     139.      
-11.       -44.f      -5.         4.7414     140.      
-12.       -113.f     -5.         4.7155     141.      
-13.       -297.f     -5.         4.6896     142.      
-14.       -799.f     -5.         4.6638     143.      
-15.       -2.149p    -5.         4.6379     144.      
-16.       -5.795p    -5.         4.612      145.      
-17.       -15.647p   -5.         4.5862     146.      
-18.       -42.279p   -5.         4.5603     147.      
-19.       -114.24p   -5.         4.5344     148.      
-20.       -308.73p   -5.         4.5086     149.      
-21.       -834.32p   -5.         4.4827     150.      
-22.       -2.2546n   -5.         4.4569     151.      
-23.       -6.0926n   -5.         4.431      152.      
-24.       -16.463n   -5.         4.4051     153.      
-25.       -44.485n   -5.         4.3793     154.      
-26.       -120.2n    -5.         4.3534     155.      
-27.       -324.77n   -5.         4.3275     156.      
-28.       -877.45n   -5.         4.3017     157.      
-29.       -2.3706u   -5.         4.2758     158.      
-30.       -6.4048u   -5.         4.2499     159.      
-31.       -17.304u   -5.         4.2241     160.      
-32.       -46.76u    -5.         4.1982     161.      
-33.       -126.41u   -5.         4.1722     162.      
-34.       -342.22u   -5.         4.1461     163.      
-35.       -929.91u   -5.         4.1197     164.      
-36.       -0.002553  -5.         4.0922     165.      
-37.       -0.0072151 -5.         4.0617     166.      
-38.       -0.022235  -5.         4.0208     167.      
-39.       -0.093415  -5.         3.9237     168.      
-40.       -1.7774    -5.         2.2139     169.      
-41.       -3.8863    -5.         0.079139   170.      
-42.       -3.8604    -5.         0.079139   171.      
-43.       -3.8346    -5.         0.079139   172.      
-44.       -3.8087    -5.         0.079139   173.      
-45.       -3.7828    -5.         0.079139   174.      
-46.       -3.757     -5.         0.079139   175.      
-47.       -3.7311    -5.         0.079139   176.      
-48.       -3.7052    -5.         0.079139   177.      
-49.       -3.6794    -5.         0.079139   178.      
-50.       -3.6535    -5.         0.079139   179.      
-51.       -3.6277    -5.         0.079139   180.      
-52.       -3.6018    -5.         0.079139   181.      
-53.       -3.5759    -5.         0.079139   182.      
-54.       -3.5501    -5.         0.079139   183.      
-55.       -3.5242    -5.         0.079139   184.      
-56.       -3.4983    -5.         0.079139   185.      
-57.       -3.4725    -5.         0.079139   186.      
-58.       -3.4466    -5.         0.079139   187.      
-59.       -3.4207    -5.         0.079139   188.      
-60.       -3.3949    -5.         0.079139   189.      
-61.       -3.369     -5.         0.079139   190.      
-62.       -3.3431    -5.         0.079139   191.      
-63.       -3.3173    -5.         0.079139   192.      
-64.       -3.2914    -5.         0.079139   193.      
-65.       -3.2656    -5.         0.079139   194.      
-66.       -3.2397    -5.         0.079139   195.      
-67.       -3.2138    -5.         0.079139   196.      
-68.       -3.188     -5.         0.079139   197.      
-69.       -3.1621    -5.         0.079139   198.      
-70.       -3.1362    -5.         0.079139   199.      
-71.       -3.1104    -5.         0.079139   200.      
-72.       -3.0845    -5.         0.079139   201.      
-73.       -3.0586    -5.         0.079139   202.      
-74.       -3.0328    -5.         0.079139   203.      
-75.       -3.0069    -5.         0.079139   204.      
-76.       -2.981     -5.         0.079139   205.      
-77.       -2.9552    -5.         0.079139   206.      
-78.       -2.9293    -5.         0.079139   207.      
-79.       -2.9035    -5.         0.079139   208.      
-80.       -2.8776    -5.         0.079139   209.      
-81.       -2.8517    -5.         0.079139   210.      
-82.       -2.8259    -5.         0.079139   211.      
-83.       -2.8       -5.         0.079139   212.      
-84.       -2.7741    -5.         0.079139   213.      
-85.       -2.7483    -5.         0.079139   214.      
-86.       -2.7224    -5.         0.079139   215.      
-87.       -2.6965    -5.         0.079139   216.      
-88.       -2.6707    -5.         0.079139   217.      
-89.       -2.6448    -5.         0.079139   218.      
-90.       -2.6189    -5.         0.079139   219.      
-91.       -2.5931    -5.         0.079139   220.      
-92.       -2.5672    -5.         0.079139   221.      
-93.       -2.5414    -5.         0.079139   222.      
-94.       -2.5155    -5.         0.079139   223.      
-95.       -2.4896    -5.         0.079139   224.      
-96.       -2.4638    -5.         0.079139   225.      
-97.       -2.4379    -5.         0.079139   226.      
-98.       -2.412     -5.         0.079139   227.      
-99.       -2.3862    -5.         0.079139   228.      
-100.      -2.3603    -5.         0.079139   229.      
did not converge
 27.       -2.3344    -5.         0.079139   230.      
Gnucap   System status
command ------ last -- total
       get     0.00     0.00
        op     0.00     0.00
        dc     0.00     0.00
      tran     0.00     0.00
   fourier     0.00     0.00
        ac     0.00     0.00
function ----- last -- total
     setup     0.00     0.00
     order     0.00     0.00
function ----- last -- total
   advance     0.00     0.00
     queue     0.00     0.00
  evaluate     0.00     0.00
      load     0.00     0.00
        lu     0.00     0.00
      back     0.00     0.00
    review     0.00     0.00
    accept     0.00     0.00
    output     0.00     0.00
  overhead     0.00     0.00
     total     0.00     0.00
iterations: op=230, dc=0, tran=0, fourier=0, total=230
transient timesteps: accepted=0, rejected=0, total=0
nodes: user=3, subckt=0, model=5, total=8
dctran density=46.9%, ac density=46.9%
