#Time       v(in)      v(r)       iter(0)   
 0.         0.         0.         3.        
 1.n        6.2832n    0.0062832  32.       
 1.55n      9.7389n    0.0062832  3.        
 2.5706n    16.151n    0.0062832  3.        
 3.5912n    22.564n    0.0062832  3.        
 4.6118n    28.977n    0.0062832  3.        
 3.7598u    23.624u    0.0062832  3.        
 30.162u    189.51u    0.0062832  3.        
 327.76u    0.0020594  0.0062832  3.        
 0.0045985  0.028889   0.0062813  3.        
 0.022947   0.14368    0.0062311  4.        
 0.057022   0.35066    0.0059175  4.        
 0.091097   0.54163    0.0052913  4.        
 0.14221    0.77929    0.004008   4.        
 0.19332    0.93726    0.0021732  4.        
 0.24444    0.99939    257.88u    4.        
 0.29555    0.95933   -0.0018255  4.        
 0.34666    0.82117   -0.0035805  4.        
 0.42333    0.46331   -0.0057546  4.        
 0.5       -7.f       -0.0063314  4.        
Gnucap   System status
iterations: op=0, dc=0, tran=99, fourier=0, total=126
transient timesteps: accepted=20, rejected=7, total=27
nodes: user=2, subckt=0, model=1, total=3
dctran density=77.8%, ac density=77.8%
