#Time       v(in)      v(r)       iter(0)   
 0.         0.         0.         3.        
 837.24p    5.2606n    0.0062832  32.       
 1.3872n    8.7163n    0.0062832  3.        
 2.2707n    14.267n    0.0062832  3.        
 3.1542n    19.818n    0.0062832  3.        
 4.0376n    25.369n    0.0062832  3.        
 2.4867u    15.625u    0.0062832  3.        
 18.463u    116.u      0.0062832  3.        
 204.68u    0.001286   0.0062832  3.        
 0.0034085  0.021415   0.0062822  3.        
 0.017597   0.11034    0.0062527  4.        
 0.049757   0.30756    0.0060125  4.        
 0.081917   0.49227    0.0054744  4.        
 0.13418    0.74668    0.0042619  4.        
 0.18644    0.92131    0.0024209  4.        
 0.2387     0.99748    494.3u     4.        
 0.29096    0.96707   -0.0016582  4.        
 0.34322    0.83332   -0.0034604  4.        
 0.42161    0.47287   -0.0057359  4.        
 0.5       -7.f       -0.0063285  4.        
Gnucap   System status
iterations: op=0, dc=0, tran=99, fourier=0, total=126
transient timesteps: accepted=20, rejected=7, total=27
nodes: user=2, subckt=0, model=1, total=3
dctran density=77.8%, ac density=77.8%
