#           v(m)       v(n)       i(V1)      i(m.D1._nb_cap) i(m.D1._nb_r) i(m.D1._b_ddt_0_p_ddt_0_n) iter(0)   
-1.4       -1.p       -1.4        0.         0.        -1.f        0.         3.        
-1.05      -1.p       -1.05       0.         0.        -1.f        0.         3.        
-0.7       -1.p       -0.7        0.         0.        -1.f        0.         3.        
-0.35      -1.p       -0.35       0.         0.        -1.f        0.         3.        
 0.         0.         0.        -1.f        0.         0.         0.         3.        
 0.35       753.28n    0.35       0.         0.         753.28p    0.         4.        
 0.7        0.058686   0.7       -58.686u    0.         58.686u    0.         9.        
#Freq       v(m)       v(n)      
 1.         0.6941     1.        
 10.        0.6941     1.        
 100.       0.6941     1.        
 1.K        0.69412    1.        
 10.K       0.69692    1.        
 100.K      0.84028    1.        
 1.Meg      0.99664    1.        
#           v(m)       v(n)       i(V1)      i(m.D1._nb_cap) i(m.D1._nb_r) i(m.D1._b_ddt_0_p_ddt_0_n) iter(0)   
 0.         0.         0.         0.         0.         0.         0.         3.        
 0.1        46.768p    0.1        0.         0.         46.768f    0.         4.        
 0.2        2.2808n    0.2        0.         0.         2.2808p    0.         4.        
 0.3        108.99n    0.3        0.         0.         108.99p    0.         4.        
 0.4        5.2054u    0.4       -5.2023n    0.         5.2054n    0.         4.        
 0.5        246.34u    0.5       -246.34n    0.         246.34n    0.         5.        
 0.6        0.0085393  0.6       -8.5393u    0.         8.5393u    0.         6.        
 0.7        0.058686   0.7       -58.686u    0.         58.686u    0.         7.        
 0.8        0.1368     0.8       -136.8u     0.         136.8u     0.         6.        
 0.9        0.22404    0.9       -224.04u    0.         224.04u    0.         6.        
 1.         0.31521    1.        -315.21u    0.         315.21u    0.         6.        
 1.1        0.4085     1.1       -408.5u     0.         408.5u     0.         5.        
 1.2        0.50311    1.2       -503.11u    0.         503.11u    0.         5.        
 1.3        0.59862    1.3       -598.62u    0.         598.62u    0.         5.        
 1.4        0.69477    1.4       -694.77u    0.         694.77u    0.         5.        
 1.5        0.7914     1.5       -791.4u     0.         791.4u     0.         5.        
 1.6        0.88841    1.6       -888.41u    0.         888.41u    0.         5.        
 1.7        0.98572    1.7       -985.72u    0.         985.72u    0.         5.        
 1.8        1.0833     1.8       -0.0010833  0.         0.0010833  0.         5.        
 1.9        1.181      1.9       -0.001181   0.         0.001181   0.         5.        
 2.         1.279      2.        -0.001279   0.         0.001279   0.         5.        
Gnucap   System status
iterations: op=0, dc=105, tran=0, fourier=0, total=140
transient timesteps: accepted=0, rejected=0, total=0
nodes: user=2, subckt=0, model=0, total=2
dctran density=100.0%, ac density=100.0%
