#Time       v(in)      v(r)       iter(0)   
 0.         0.         0.         3.        
 1.n        6.2832n    0.0062832  32.       
 1.5n       9.4248n    0.0062832  3.        
 2.5n       15.708n    0.0062832  3.        
 3.5n       21.991n    0.0062832  3.        
 4.5n       28.274n    0.0062832  3.        
 2.709u     17.021u    0.0062832  3.        
 20.91u     131.38u    0.0062832  3.        
 209.58u    0.0013168  0.0062832  3.        
 0.0046325  0.029103   0.0062813  3.        
 0.021145   0.13247    0.0062382  4.        
 0.055349   0.3408     0.0059435  4.        
 0.089553   0.53345    0.0053214  4.        
 0.14086    0.77394    0.0040533  4.        
 0.19216    0.9347     0.0022133  4.        
 0.24347    0.99916    299.57u    4.        
 0.29478    0.96068   -0.0017993  4.        
 0.34608    0.82324   -0.0035585  4.        
 0.42304    0.46492   -0.0057534  4.        
 0.5       -7.f       -0.006329   4.        
Gnucap   System status
iterations: op=0, dc=0, tran=99, fourier=0, total=126
transient timesteps: accepted=20, rejected=7, total=27
nodes: user=2, subckt=0, model=1, total=3
dctran density=77.8%, ac density=77.8%
