dc v -10 10 2 
   ^ ? what's this?
#           v(in)      v(out)     iter(0)   
 0.         0.         0.         3.        
#Time       v(in)      v(out)     iter(0)   
 0.         0.         0.         2.        
 249.n      1.5645u    390.f      15.       
 786.n      4.9385u    2.136p     3.        
 1.323u     8.3126u    5.694p     3.        
 1.86u      11.687u    11.063p    3.        
 54.742u    343.95u    9.4142n    3.        
 493.68u    0.0031018  765.48n    3.        
 0.0024525  0.015409   18.876u    3.        
 0.0081715  0.05132    209.03u    3.        
 0.020782   0.13021    0.0013439  3.        
 0.043602   0.27054    0.0058345  3.        
 0.076202   0.4607     0.017375   3.        
 0.1088     0.6316     0.034337   3.        
 0.1577     0.83649    0.067736   3.        
 0.2066     0.96304    0.10745    3.        
 0.2555     0.99939    0.14916    3.        
 0.3044     0.94214    0.18838    3.        
 0.3533     0.79665    0.22088    3.        
 0.42665    0.44472    0.24917    3.        
 0.5        2.4727u    0.24727    3.        
Gnucap   System status
iterations: op=0, dc=3, tran=71, fourier=0, total=98
transient timesteps: accepted=20, rejected=4, total=24
nodes: user=2, subckt=0, model=1, total=3
dctran density=77.8%, ac density=77.8%
