#Time       v(1)       v(2)       i(d0)      d(d0)      i(v1)     
 0.        -1.0731E-9  0.         0.         0.         0.        
 14.495E-6 -1.0012E-9 -500.6E-12 -7.256E-15 -500.6E-12  500.6E-12 
 48.976E-6 -34.164E-9 -17.082E-9 -310.4E-15 -17.082E-9  17.082E-9 
 83.456E-6 -114.26E-9 -57.131E-9 -1.59E-12  -57.131E-9  57.131E-9 
 117.94E-6 -241.3E-9  -120.65E-9 -4.655E-12 -120.65E-9  120.65E-9 
 152.42E-6 -415.27E-9 -207.63E-9 -10.31E-12 -207.63E-9  207.63E-9 
 186.9E-6  -636.18E-9 -318.09E-9 -19.38E-12 -318.09E-9  318.09E-9 
 221.38E-6 -904.02E-9 -452.01E-9 -32.65E-12 -452.01E-9  452.01E-9 
 273.16E-6 -1.3944E-6 -697.2E-9  -62.41E-12 -697.2E-9   697.2E-9  
 324.94E-6 -1.9906E-6 -995.31E-9 -106.2E-12 -995.31E-9  995.31E-9 
 403.3E-6  -3.0942E-6 -1.5471E-6 -205.8E-12 -1.5471E-6  1.5471E-6 
 481.66E-6 -4.4403E-6 -2.2201E-6 -353.4E-12 -2.2201E-6  2.2201E-6 
 560.02E-6 -6.0287E-6 -3.0143E-6 -558.5E-12 -3.0143E-6  3.0143E-6 
 693.32E-6 -9.2876E-6 -4.6438E-6 -1.0689E-9 -4.6438E-6  4.6438E-6 
 826.62E-6 -13.248E-6 -6.624E-6  -1.8199E-9 -6.624E-6   6.624E-6  
 0.0010298 -20.636E-6 -10.318E-6 -3.5414E-9 -10.318E-6  10.318E-6 
 0.0012331 -29.654E-6 -14.827E-6 -6.0965E-9 -14.827E-6  14.827E-6 
 0.0014363 -40.303E-6 -20.151E-6 -9.6507E-9 -20.151E-6  20.151E-6 
 0.0017809 -62.088E-6 -31.044E-6 -18.472E-9 -31.044E-6  31.044E-6 
 0.0021255 -88.561E-6 -44.281E-6 -31.452E-9 -44.281E-6  44.281E-6 
 0.0026489 -137.73E-6 -68.867E-6 -61.062E-9 -68.867E-6  68.867E-6 
 0.0031723 -197.72E-6 -98.86E-6  -104.96E-9 -98.86E-6   98.86E-6  
 0.0036957 -268.52E-6 -134.26E-6 -165.96E-9 -134.26E-6  134.26E-6 
 0.0045792 -412.56E-6 -206.28E-6 -316.4E-9  -206.28E-6  206.28E-6 
 0.0054628 -587.41E-6 -293.7E-6  -537.27E-9 -293.7E-6   293.7E-6  
 0.0068133 -914.19E-6 -457.1E-6  -1.0443E-6 -457.1E-6   457.1E-6  
 0.0081638 -0.0013129 -656.46E-6 -1.7962E-6 -656.46E-6  656.46E-6 
 0.0095144 -0.0017835 -891.77E-6 -2.8417E-6 -891.77E-6  891.77E-6 
 0.011777  -0.0027329 -0.0013664 -5.3959E-6 -0.0013664  0.0013664 
 0.014039  -0.0038837 -0.0019418 -9.1377E-6 -0.0019418  0.0019418 
 0.017477  -0.0060182 -0.0030091 -17.649E-6 -0.0030091  0.0030091 
 0.020916  -0.0086166 -0.0043083 -30.23E-6  -0.0043083  0.0043083 
 0.025858  -0.013162  -0.0065811 -57.142E-6 -0.0065811  0.0065811 
 0.030801  -0.018659  -0.0093297 -96.463E-6 -0.0093297  0.0093297 
 0.037721  -0.027944  -0.013972  -177.09E-6 -0.013972   0.013972  
 0.044641  -0.039066  -0.019533  -293.01E-6 -0.019533   0.019533  
 0.053867  -0.056717  -0.028358  -513.95E-6 -0.028358   0.028358  
 0.063094  -0.077537  -0.038768  -823.62E-6 -0.038768   0.038768  
 0.075396  -0.1101    -0.055052  -0.0014007 -0.055052   0.055052  
 0.087698  -0.14799   -0.073993  -0.0021945 -0.073993   0.073993  
 0.1       -0.19095   -0.095477  -0.0032369 -0.095477   0.095477  
#Time       v(1)       v(2)       i(d0)      d(d0)      i(v1)     
 0.        -1.0731E-9  0.         0.         0.         0.        
 0.05      -0.048929  -0.024464  -0.001211  -0.024464   0.024464  
 0.1       -0.19095   -0.095477  -0.0059849 -0.095477   0.095477  
#Freq       vm(1)      vm(2)      vp(1)      vp(2)     
 1.         1.         0.5        0.         0.        
 10.        1.         0.5        0.         0.        
Gnucap   System status
iterations: op=0, dc=0, tran=12, fourier=0, total=202
transient timesteps: accepted=45, rejected=5, total=50
nodes: user=2, subckt=0, model=3, total=5
dctran density=76.0%, ac density=76.0%
