test_evt1_0 #() dut0 (.p(1),.n(0));
test_evt1_0 #() dut1 (.p(0),.n(1));
vsine #(.freq(1e6),.ampl(2),.samples(9)) vin (.p(1),.n(0));
#           v(1)       iter(0)   
 0.         0.         3.        
#Time       v(1)       iter(0)   
 0.         0.         2.        
 2.E-12     25.133E-6  3.        
 4.E-12     50.265E-6  3.        
 111.11E-9  1.2856     3.        
 129.64E-9  1.4549     3.        
 134.58E-9  1.4968     3.        
 134.97E-9  1.4999     3.        
 134.97E-9  1.5        2.        
 134.99E-9  1.5001     6.        
 134.99E-9  1.5001     2.        
above 1.5 dbg 1.3499e-07 1.50012
above 1.5 dbg 1.3499e-07 1.50012
above 1.5     1.3499e-07 1.50012
 134.99E-9  1.5001     2.        
above 1.5 dbg 2.43117e-07 1.50014
above 1.5 dbg 2.43117e-07 1.99813
above 1.5 dbg 2.43117e-07 1.99813
above 1.5     2.43117e-07 1.99813
 243.12E-9  1.9981     3.        
above 1.5 dbg 3.51244e-07 1.99813
above 1.5 dbg 3.51244e-07 1.6088
above 1.5 dbg 3.51244e-07 1.6088
above 1.5     3.51244e-07 1.6088
 351.24E-9  1.6088     3.        
above 1.5 dbg 3.81459e-07 1.6088
above 1.5 dbg 3.81459e-07 1.35567
above 1.5 dbg 3.64231e-07 1.6088
above 1.5 dbg 3.64231e-07 1.5066
above 1.5 dbg 3.64231e-07 1.5066
above 1.5     3.64231e-07 1.5066
 364.23E-9  1.5066     6.        
above 1.5 dbg 3.65069e-07 1.5066
above 1.5 dbg 3.65069e-07 1.49965
above 1.5 dbg 3.65027e-07 1.5066
above 1.5 dbg 3.65027e-07 1.5
above 1.5 dbg 3.65027e-07 1.5
above 1.5     3.65027e-07 1.5
 365.03E-9  1.5        5.        
 365.03E-9  1.5        2.        
 470.86E-9  0.36417    3.        
 499.98E-9  276.46E-6  6.        
 500.E-9   -13.E-15    3.        
zero cross dbg 5.00002e-07 -1.30778e-14
zero cross dbg 5.00002e-07 1.30778e-14
zero cross dbg 5.00002e-07 -2.51327e-05
zero cross dbg 5.00002e-07 2.51327e-05
zero cross dbg 5.00002e-07 2.51327e-05
zero cross     5.00002e-07 2.51327e-05
zero cross dbg 5.00002e-07 -2.51327e-05
zero cross     5.00002e-07 -2.51327e-05
 500.E-9   -25.133E-6  3.        
 583.34E-9 -1.         3.        
 625.E-9   -1.4142     3.        
 633.63E-9 -1.4888     3.        
 634.93E-9 -1.4996     3.        
 634.97E-9 -1.5        2.        
 635.05E-9 -1.5006     6.        
 635.05E-9 -1.5006     2.        
above 1.5 dbg 6.35049e-07 1.50061
above 1.5 dbg 6.35049e-07 1.50061
above 1.5     6.35049e-07 1.50061
 635.05E-9 -1.5006     2.        
above 1.5 dbg 7.26287e-07 1.50063
above 1.5 dbg 7.26287e-07 1.97784
above 1.5 dbg 7.26287e-07 1.97784
above 1.5     7.26287e-07 1.97784
 726.29E-9 -1.9778     3.        
above 1.5 dbg 8.17525e-07 1.97784
above 1.5 dbg 8.17525e-07 1.82268
above 1.5 dbg 8.17525e-07 1.82268
above 1.5     8.17525e-07 1.82268
 817.53E-9 -1.8227     3.        
above 1.5 dbg 9.08763e-07 1.82268
above 1.5 dbg 9.08763e-07 1.08475
above 1.5 dbg 8.57421e-07 1.82268
above 1.5 dbg 8.57421e-07 1.56148
above 1.5 dbg 8.57421e-07 1.56148
above 1.5     8.57421e-07 1.56148
 857.42E-9 -1.5615     6.        
above 1.5 dbg 8.66812e-07 1.56148
above 1.5 dbg 8.66812e-07 1.48507
above 1.5 dbg 8.64977e-07 1.56148
above 1.5 dbg 8.64977e-07 1.50041
above 1.5 dbg 8.64977e-07 1.50041
above 1.5     8.64977e-07 1.50041
 864.98E-9 -1.5004     6.        
above 1.5 dbg 8.65028e-07 1.50041
above 1.5 dbg 8.65028e-07 1.50041
above 1.5     8.65028e-07 1.50041
 865.03E-9 -1.5        2.        
above 1.5 dbg 9.32514e-07 1.49999
above 1.5 dbg 9.32514e-07 0.822868
above 1.5 dbg 8.65069e-07 1.49999
above 1.5 dbg 8.65069e-07 1.49999
above 1.5     8.65069e-07 1.49999
 865.07E-9 -1.4996     6.        
 865.07E-9 -1.4996     2.        
 873.87E-9 -1.4242     3.        
 915.91E-9 -1.0082     3.        
 1.E-6      26.E-15    3.        
