test_evt1_0 #() dut0 (.p(1),.n(0));
test_evt1_0 #() dut1 (.p(0),.n(1));
vsine #(.freq(1e6),.ampl(2),.samples(9)) vin (.p(1),.n(0));
#           v(1)       iter(0)   
 0.         0.         3.        
#Time       v(1)       iter(0)   
 0.         0.         2.        
 2.E-12     25.133E-6  3.        
 4.E-12     50.265E-6  3.        
 111.11E-9  1.2856     3.        
 129.64E-9  1.4549     3.        
 134.58E-9  1.4968     3.        
 134.97E-9  1.4999     3.        
 134.97E-9  1.5        2.        
 134.99E-9  1.5001     6.        
 134.99E-9  1.5001     2.        
above 1.5 dbg 1.3499e-07 1.50012
above 1.5 dbg 1.3499e-07 1.50012
above 1.5     1.3499e-07 1.50012
 134.99E-9  1.5001     2.        
above 1.5 dbg 2.43116e-07 1.50014
above 1.5 dbg 2.43116e-07 1.99813
above 1.5 dbg 2.43116e-07 1.99813
above 1.5     2.43116e-07 1.99813
 243.12E-9  1.9981     3.        
above 1.5 dbg 3.51242e-07 1.99813
above 1.5 dbg 3.51242e-07 1.60881
above 1.5 dbg 3.51242e-07 1.60881
above 1.5     3.51242e-07 1.60881
 351.24E-9  1.6088     3.        
above 1.5 dbg 3.81462e-07 1.60881
above 1.5 dbg 3.81462e-07 1.35564
above 1.5 dbg 3.64231e-07 1.60881
above 1.5 dbg 3.64231e-07 1.5066
above 1.5 dbg 3.64231e-07 1.5066
above 1.5     3.64231e-07 1.5066
 364.23E-9  1.5066     6.        
above 1.5 dbg 3.65069e-07 1.5066
above 1.5 dbg 3.65069e-07 1.49965
above 1.5 dbg 3.65027e-07 1.5066
above 1.5 dbg 3.65027e-07 1.5
above 1.5 dbg 3.65027e-07 1.5
above 1.5     3.65027e-07 1.5
 365.03E-9  1.5        5.        
 365.03E-9  1.5        2.        
 470.86E-9  0.36417    3.        
 499.98E-9  276.46E-6  6.        
 500.E-9   -13.E-15    3.        
zero cross dbg 5.00002e-07 -1.30778e-14
zero cross dbg 5.00002e-07 1.30778e-14
zero cross dbg 5.00002e-07 -2.51327e-05
zero cross dbg 5.00002e-07 2.51327e-05
zero cross dbg 5.00002e-07 2.51327e-05
zero cross     5.00002e-07 2.51327e-05
zero cross dbg 5.00002e-07 -2.51327e-05
zero cross     5.00002e-07 -2.51327e-05
 500.E-9   -25.133E-6  3.        
 600.E-9   -1.1756     3.        
 627.6E-9  -1.4371     3.        
 634.23E-9 -1.4938     3.        
 634.95E-9 -1.4998     3.        
 634.97E-9 -1.5        2.        
 635.E-9   -1.5002     6.        
 635.E-9   -1.5003     2.        
above 1.5 dbg 6.35006e-07 1.50026
above 1.5 dbg 6.35006e-07 1.50026
above 1.5     6.35006e-07 1.50026
 635.01E-9 -1.5003     2.        
above 1.5 dbg 7.26255e-07 1.50027
above 1.5 dbg 7.26255e-07 1.97778
above 1.5 dbg 7.26255e-07 1.97778
above 1.5     7.26255e-07 1.97778
 726.25E-9 -1.9778     3.        
above 1.5 dbg 8.17504e-07 1.97778
above 1.5 dbg 8.17504e-07 1.82279
above 1.5 dbg 8.17504e-07 1.82279
above 1.5     8.17504e-07 1.82279
 817.5E-9  -1.8228     3.        
above 1.5 dbg 9.08753e-07 1.82279
above 1.5 dbg 9.08753e-07 1.08485
above 1.5 dbg 8.57418e-07 1.82279
above 1.5 dbg 8.57418e-07 1.5615
above 1.5 dbg 8.57418e-07 1.5615
above 1.5     8.57418e-07 1.5615
 857.42E-9 -1.5615     6.        
above 1.5 dbg 8.66814e-07 1.5615
above 1.5 dbg 8.66814e-07 1.48505
above 1.5 dbg 8.64977e-07 1.5615
above 1.5 dbg 8.64977e-07 1.50041
above 1.5 dbg 8.64977e-07 1.50041
above 1.5     8.64977e-07 1.50041
 864.98E-9 -1.5004     6.        
above 1.5 dbg 8.65028e-07 1.50041
above 1.5 dbg 8.65028e-07 1.50041
above 1.5     8.65028e-07 1.50041
 865.03E-9 -1.5        2.        
above 1.5 dbg 9.32514e-07 1.49999
above 1.5 dbg 9.32514e-07 0.822868
above 1.5 dbg 8.65069e-07 1.49999
above 1.5 dbg 8.65069e-07 1.49999
above 1.5     8.65069e-07 1.49999
 865.07E-9 -1.4996     6.        
 865.07E-9 -1.4996     2.        
 873.87E-9 -1.4242     3.        
 936.94E-9 -0.77191    3.        
 1.E-6      26.E-15    3.        
