#Time       v(hi)      v(hi1)     v(in)      v(lo)      v(lo1)     iter(0)   
 0.         0.         0.         0.         0.         0.         3.        
 497.87n    3.1282u    3.1282u    3.1282u    1.557p     1.557p     15.       
 766.4n     4.8153u    4.8153u    4.8153u    2.624p     2.624p     3.        
 1.3841u    8.6965u    8.6965u    8.6965u    6.797p     6.797p     3.        
 1.8403u    11.563u    11.563u    11.563u    11.418p    11.418p    3.        
 59.147u    371.61u    371.61u    371.62u    10.991n    10.991n    3.        
 521.01u    0.0032727  0.0032727  0.0032736  852.58n    852.58n    3.        
 0.0025566  0.016042   0.016042   0.016063   20.511u    20.511u    3.        
 0.0085293  0.053337   0.053337   0.053565   227.7u     227.7u     3.        
 0.021749   0.13475    0.13475    0.13622    0.0014709  0.0014709  3.        
 0.045041   0.27301    0.27301    0.27923    0.0062197  0.0062197  3.        
 0.079146   0.45835    0.45835    0.47704    0.018691   0.018691   3.        
 0.11325    0.61601    0.61601    0.65302    0.037012   0.037012   3.        
 0.16541    0.78841    0.78841    0.86205    0.073641   0.073641   3.        
 0.21758    0.8626     0.8626     0.9793     0.1167     0.1167     3.        
 0.26974    0.83142    0.83142    0.9923     0.16088    0.16088    3.        
 0.3219     0.69888    0.69888    0.89967    0.20079    0.20079    3.        
 0.37406    0.47973    0.47973    0.71126    0.23153    0.23153    3.        
 0.4523     0.043233   0.043233   0.29522    0.25199    0.25199    3.        
 0.53055   -0.42769   -0.42769   -0.19074    0.23695    0.23695    3.        
 0.64791   -0.95691   -0.95691   -0.80121    0.1557     0.1557     3.        
 0.76527   -1.0342    -1.0342    -0.99538    0.038856   0.038856   3.        
 0.84352   -0.7994    -0.7994    -0.83227   -0.032878  -0.032878   3.        
 0.88264   -0.61188   -0.61188   -0.67237   -0.060483  -0.060483   3.        
 0.92176   -0.39192   -0.39192   -0.47204   -0.080118  -0.080118   3.        
 0.96088   -0.15257   -0.15257   -0.24334   -0.090769  -0.090769   3.        
 1.         0.091952   0.091952  -1.839u    -0.091954  -0.091954   3.        
#Freq       vm(hi)     vm(hi1)    vm(in)     vm(lo)     vm(lo1)    iter(0)   
 0.1        0.53202    0.53202    0.99999    0.84673    0.84673    0.        
 1.         0.98755    0.98755    0.99998    0.15717    0.15717    0.        
 10.        0.99985    0.99985    0.99998    0.015913   0.015913   0.        
Gnucap   System status
iterations: op=0, dc=0, tran=93, fourier=0, total=127
transient timesteps: accepted=27, rejected=4, total=31
nodes: user=5, subckt=0, model=3, total=8
dctran density=62.5%, ac density=62.5%
