#Time       v(pl0)     v(pl1)     v(pl2)     v(ph0)     v(ph1)     v(ph2)     iter(0)   
 0.         0.         0.         0.         0.         0.         0.         3.        
 482.25n    0.         0.         0.         0.         0.         0.         15.       
 759.49n    0.         0.         0.         0.         0.         0.         3.        
 1.3647u    0.         0.         0.         0.         0.         0.         3.        
 1.8222u    0.         0.         0.         0.         0.         0.         3.        
 58.402u    11.E-21    5.E-21     5.E-21     0.         0.         0.         3.        
 516.46u    837.E-21   419.E-21   419.E-21   0.         0.         0.         3.        
 0.0025397  20.2E-18   10.12E-18  10.12E-18  0.         0.        -7.553f     3.        
 0.008477   223.5E-18  112.3E-18  112.3E-18  0.         0.        -84.044f    3.        
 0.021697   1.4407f    729.E-18   729.E-18   0.         0.        -549.14f    3.        
 0.04499    6.0082f    3.0774f    3.0774f    0.         0.        -2.3432p    3.        
 0.079098   17.642f    9.2027f    9.2027f    0.         0.        -7.1144p    3.        
 0.11321    34.125f    18.121f    18.121f   -71.054f    0.        -14.221p    3.        
 0.16537    65.267f    35.701f    35.701f   -138.67f    0.        -28.721p    3.        
 0.21753    99.101f    55.955f    55.955f   -216.16f   -116.46f   -46.227p    3.        
 0.2697     130.03f    76.175f    76.175f   -291.32f   -160.87f   -64.812p    3.        
 0.32186    153.07f    93.647f    93.647f   -354.49f   -199.4f    -82.434p    3.        
 0.37403    164.12f    106.03f    106.03f   -396.35f   -231.15f   -97.153p    3.        
 0.45227    153.16f    111.19f    111.19f   -404.93f   -249.91f   -110.2p     3.        
 0.53052    108.75f    98.366f    98.366f   -346.11f   -234.48f   -109.98p    3.        
 0.64789    0.         50.987f    50.987f   -154.1f    -150.99f   -85.946p    3.        
 0.76526   -122.71f   -11.297f   -11.297f    0.         0.        -45.059p    3.        
 0.84351   -182.75f   -47.812f   -47.812f    215.05f    0.        -17.874p    3.        
 0.88263   -201.01f   -61.414f   -61.414f    261.35f    70.055f   -6.7861p    3.        
 0.92175   -209.83f   -70.773f   -70.773f    289.66f    90.261f    1.5996p    3.        
 0.96088   -208.92f   -75.457f   -75.457f    298.79f    101.31f    6.8039p    3.        
 1.        -198.56f   -75.315f   -75.315f    289.92f    102.98f    8.5392p    3.        
#Freq       vm(pl0)    vm(pl1)    vm(pl2)    vm(ph0)    vm(ph1)    vm(ph2)   
 0.1        0.         55.51E-18  55.51E-18  55.51E-18  124.1E-18  0.        
 1.         3.469E-18  0.         0.         111.E-18   13.88E-18  3.469E-18 
 10.        0.         0.         0.         3.469E-18  111.E-18   111.E-18  
Gnucap   System status
iterations: op=0, dc=0, tran=93, fourier=0, total=127
transient timesteps: accepted=27, rejected=4, total=31
nodes: user=13, subckt=0, model=13, total=26
dctran density=36.1%, ac density=36.1%
