#Time       v(pl0)     v(pl1)     v(pl2)     v(ph0)     v(ph1)     v(ph2)     iter(0)   
 0.         0.         0.         0.         0.         0.         0.         3.        
 498.n      0.         0.         0.         0.         0.         0.         15.       
 766.n      0.         0.         0.         0.         0.         0.         3.        
 1.384u     0.         0.         0.         0.         0.         0.         3.        
 1.84u      0.         0.         0.         0.         0.         0.         3.        
 59.186u    11.E-21    6.E-21     6.E-21     0.         0.         0.         3.        
 521.27u    853.E-21   427.E-21   427.E-21   0.         0.         0.         3.        
 0.002561   20.54E-18  10.29E-18  10.29E-18  0.         0.        -7.6814f    3.        
 0.0085337  226.4E-18  113.8E-18  113.8E-18  0.         0.        -85.182f    3.        
 0.021753   1.4476f    732.8E-18  732.8E-18  0.         0.        -551.98f    3.        
 0.045045   6.0221f    3.0852f    3.0852f    0.         0.        -2.3486p    3.        
 0.07915    17.666f    9.2149f    9.2149f    0.         0.        -7.1235p    3.        
 0.11326    34.16f     18.135f    18.135f   -71.165f    0.        -14.233p    3.        
 0.16542    65.323f    35.714f    35.714f   -139.f      0.        -28.737p    3.        
 0.21758    99.143f    55.969f    55.969f   -216.16f   -116.8f    -46.244p    3.        
 0.26974    130.09f    76.189f    76.189f   -291.99f   -160.87f   -64.828p    3.        
 0.3219     153.13f    93.689f    93.689f   -353.83f   -200.4f    -82.447p    3.        
 0.37406    164.34f    106.07f    106.07f   -397.46f   -231.26f   -97.163p    3.        
 0.45231    153.49f    111.16f    111.16f   -406.09f   -251.77f   -110.2p     3.        
 0.53055    109.13f    98.338f    98.338f   -345.95f   -234.92f   -109.98p    3.        
 0.64791    0.         51.043f    51.043f   -154.43f   -151.66f   -85.939p    3.        
 0.76527   -122.45f   -11.192f   -11.192f    0.         0.        -45.052p    3.        
 0.84352   -182.53f   -47.708f   -47.708f    215.49f    0.        -17.87p     3.        
 0.88264   -200.82f   -61.309f   -61.309f    261.68f    69.056f   -6.7831p    3.        
 0.92176   -209.67f   -70.662f   -70.662f    289.55f    89.595f    1.6014p    3.        
 0.96088   -208.76f   -75.346f   -75.346f    300.32f    100.36f    6.8052p    3.        
 0.98044   -204.68f   -75.873f   -75.873f    296.89f    102.36f    8.1205p    3.        
 1.        -198.34f   -75.193f   -75.193f    289.19f    102.23f    8.5454p    3.        
#Freq       vm(pl0)    vm(pl1)    vm(pl2)    vm(ph0)    vm(ph1)    vm(ph2)   
 0.1        0.         55.51E-18  55.51E-18  55.51E-18  124.1E-18  0.        
 1.         3.469E-18  0.         0.         111.E-18   13.88E-18  3.469E-18 
 10.        0.         0.         0.         3.469E-18  111.E-18   111.E-18  
Gnucap   System status
iterations: op=0, dc=0, tran=96, fourier=0, total=131
transient timesteps: accepted=28, rejected=4, total=32
nodes: user=13, subckt=0, model=13, total=26
dctran density=36.1%, ac density=36.1%
