#Time       v(pl0)     v(pl1)     v(pl2)     v(ph0)     v(ph1)     v(ph2)     iter(0)   
 0.         0.         0.         0.         0.         0.         0.         3.        
 498.n      0.         0.         0.         0.         0.         0.         15.       
 766.n      0.         0.         0.         0.         0.         0.         3.        
 1.384u     0.         0.         0.         0.         0.         0.         3.        
 1.84u      0.         0.         0.         0.         0.         0.         3.        
 59.186u    11.E-21    6.E-21     6.E-21     0.         0.         0.         3.        
 521.27u    853.E-21   427.E-21   427.E-21   0.         0.         0.         3.        
 0.002561   20.54E-18  10.29E-18  10.29E-18  0.         0.        -7.6814f    3.        
 0.0085337  226.4E-18  113.8E-18  113.8E-18  0.         0.        -85.182f    3.        
 0.021753   1.4476f    732.8E-18  732.8E-18  0.         0.        -551.98f    3.        
 0.045045   6.0204f    3.0852f    3.0852f    0.         0.        -2.3487p    3.        
 0.07915    17.666f    9.2131f    9.2131f    0.         0.        -7.1236p    3.        
 0.11326    34.16f     18.138f    18.138f   -71.054f    0.        -14.234p    3.        
 0.16542    65.309f    35.721f    35.721f   -138.89f    0.        -28.737p    3.        
 0.21758    99.129f    55.983f    55.983f   -216.16f   -116.24f   -46.244p    3.        
 0.26974    130.09f    76.203f    76.203f   -291.21f   -160.21f   -64.827p    3.        
 0.3219     153.16f    93.689f    93.689f   -354.27f   -198.95f   -82.445p    3.        
 0.37406    164.37f    106.1f     106.1f    -396.41f   -230.7f    -97.162p    3.        
 0.45231    153.54f    111.27f    111.27f   -404.65f   -250.83f   -110.2p     3.        
 0.53055    109.25f    98.477f    98.477f   -345.67f   -235.09f   -109.98p    3.        
 0.64791    0.         51.154f    51.154f   -154.43f   -151.32f   -85.938p    3.        
 0.76527   -122.33f   -11.123f   -11.123f    0.         0.        -45.052p    3.        
 0.84352   -182.37f   -47.642f   -47.642f    215.38f    0.        -17.87p     3.        
 0.88264   -200.66f   -61.241f   -61.241f    261.01f    69.389f   -6.7824p    3.        
 0.92176   -209.53f   -70.6f     -70.6f      289.27f    89.651f    1.602p     3.        
 0.96088   -208.64f   -75.28f    -75.28f     299.54f    100.72f    6.8056p    3.        
 0.98044   -204.6f    -75.804f   -75.804f    295.65f    102.24f    8.1208p    3.        
 1.        -198.26f   -75.134f   -75.134f    291.5f     102.9f     8.5455p    3.        
#Freq       vm(pl0)    vm(pl1)    vm(pl2)    vm(ph0)    vm(ph1)    vm(ph2)   
 0.1        0.         55.51E-18  55.51E-18  55.51E-18  124.1E-18  0.        
 1.         3.469E-18  0.         0.         111.E-18   13.88E-18  3.469E-18 
 10.        0.         0.         0.         3.469E-18  111.E-18   111.E-18  
Gnucap   System status
iterations: op=0, dc=0, tran=96, fourier=0, total=131
transient timesteps: accepted=28, rejected=4, total=32
nodes: user=13, subckt=0, model=13, total=26
dctran density=36.1%, ac density=36.1%
