#Time       v(hi)      v(hi1)     v(in)      v(lo)      v(lo1)     iter(0)   
 0.         0.         0.         0.         0.         0.         3.        
 498.n      3.129u     3.129u     3.129u     1.558p     1.558p     15.       
 766.n      4.8128u    4.8128u    4.8128u    2.622p     2.622p     3.        
 1.384u     8.6957u    8.6957u    8.6958u    6.797p     6.797p     3.        
 1.84u      11.561u    11.561u    11.561u    11.415p    11.415p    3.        
 59.186u    371.86u    371.86u    371.87u    11.005n    11.005n    3.        
 521.27u    0.0032743  0.0032743  0.0032751  853.41n    853.41n    3.        
 0.002561   0.01607    0.01607    0.01609    20.582u    20.582u    3.        
 0.0085337  0.053364   0.053364   0.053592   227.94u    227.94u    3.        
 0.021753   0.13478    0.13478    0.13625    0.0014715  0.0014715  3.        
 0.045045   0.27304    0.27304    0.27926    0.0062209  0.0062209  3.        
 0.07915    0.45837    0.45837    0.47706    0.018693   0.018693   3.        
 0.11326    0.61603    0.61603    0.65304    0.037015   0.037015   3.        
 0.16542    0.78841    0.78841    0.86206    0.073643   0.073643   3.        
 0.21758    0.8626     0.8626     0.97931    0.1167     0.1167     3.        
 0.26974    0.83142    0.83142    0.9923     0.16088    0.16088    3.        
 0.3219     0.69887    0.69887    0.89966    0.2008     0.2008     3.        
 0.37406    0.47971    0.47971    0.71125    0.23153    0.23153    3.        
 0.45231    0.043218   0.043218   0.29521    0.25199    0.25199    3.        
 0.53055   -0.4277    -0.4277    -0.19075    0.23695    0.23695    3.        
 0.64791   -0.95691   -0.95691   -0.80121    0.1557     0.1557     3.        
 0.76527   -1.0342    -1.0342    -0.99538    0.038855   0.038855   3.        
 0.84352   -0.79939   -0.79939   -0.83227   -0.032878  -0.032878   3.        
 0.88264   -0.61188   -0.61188   -0.67236   -0.060483  -0.060483   3.        
 0.92176   -0.39192   -0.39192   -0.47204   -0.080118  -0.080118   3.        
 0.96088   -0.15257   -0.15257   -0.24333   -0.090769  -0.090769   3.        
 1.         0.091952   0.091952  -1.839u    -0.091954  -0.091954   3.        
#Freq       vm(hi)     vm(hi1)    vm(in)     vm(lo)     vm(lo1)    iter(0)   
 0.1        0.53202    0.53202    0.99999    0.84673    0.84673    0.        
 1.         0.98755    0.98755    0.99998    0.15717    0.15717    0.        
 10.        0.99985    0.99985    0.99998    0.015913   0.015913   0.        
Gnucap   System status
iterations: op=0, dc=0, tran=93, fourier=0, total=127
transient timesteps: accepted=27, rejected=4, total=31
nodes: user=5, subckt=0, model=3, total=8
dctran density=62.5%, ac density=62.5%
