#Time       v(hi)      v(hi1)     v(in)      v(lo)      v(lo1)     iter(0)   
 0.         0.         0.         0.         0.         0.         3.        
 482.25n    3.03u      3.03u      3.03u      1.461p     1.461p     15.       
 759.48n    4.7718u    4.7718u    4.7718u    2.543p     2.543p     3.        
 1.3647u    8.5743u    8.5743u    8.5743u    6.581p     6.581p     3.        
 1.8222u    11.449u    11.449u    11.449u    11.162p    11.162p    3.        
 58.377u    366.77u    366.77u    366.78u    10.706n    10.706n    3.        
 516.44u    0.003244   0.003244   0.0032448  837.67n    837.67n    3.        
 0.0025397  0.015936   0.015936   0.015956   20.241u    20.241u    3.        
 0.0084769  0.053011   0.053011   0.053236   224.92u    224.92u    3.        
 0.021697   0.13444    0.13444    0.1359     0.001464   0.001464   3.        
 0.04499    0.27272    0.27272    0.27893    0.006206   0.006206   3.        
 0.079098   0.4581     0.4581     0.47677    0.018669   0.018669   3.        
 0.11321    0.61582    0.61582    0.6528     0.036983   0.036983   3.        
 0.16537    0.7883     0.7883     0.86191    0.073606   0.073606   3.        
 0.21753    0.86258    0.86258    0.97925    0.11666    0.11666    3.        
 0.2697     0.83148    0.83148    0.99233    0.16085    0.16085    3.        
 0.32186    0.699      0.699      0.89977    0.20077    0.20077    3.        
 0.37403    0.47989    0.47989    0.71141    0.23152    0.23152    3.        
 0.45227    0.043409   0.043409   0.2954     0.25199    0.25199    3.        
 0.53052   -0.42754   -0.42754   -0.19058    0.23696    0.23696    3.        
 0.64789   -0.95685   -0.95685   -0.80114    0.15572    0.15572    3.        
 0.76526   -1.0343    -1.0343    -0.99539    0.038869   0.038869   3.        
 0.84351   -0.79943   -0.79943   -0.8323    -0.032871  -0.032871   3.        
 0.88263   -0.61192   -0.61192   -0.6724    -0.060479  -0.060479   3.        
 0.92175   -0.39195   -0.39195   -0.47206   -0.080116  -0.080116   3.        
 0.96088   -0.15258   -0.15258   -0.24335   -0.090768  -0.090768   3.        
 1.         0.091952   0.091952  -1.839u    -0.091954  -0.091954   3.        
#Freq       vm(hi)     vm(hi1)    vm(in)     vm(lo)     vm(lo1)    iter(0)   
 0.1        0.53202    0.53202    0.99999    0.84673    0.84673    0.        
 1.         0.98755    0.98755    0.99998    0.15717    0.15717    0.        
 10.        0.99985    0.99985    0.99998    0.015913   0.015913   0.        
Gnucap   System status
iterations: op=0, dc=0, tran=93, fourier=0, total=127
transient timesteps: accepted=27, rejected=4, total=31
nodes: user=5, subckt=0, model=3, total=8
dctran density=62.5%, ac density=62.5%
