#Time       v(pl0)     v(pl1)     v(pl2)     v(ph0)     v(ph1)     v(ph2)     iter(0)   
 0.         0.         0.         0.         0.         0.         0.         3.        
 482.25n    0.         0.         0.         0.         0.         0.         15.       
 759.49n    0.         0.         0.         0.         0.         0.         3.        
 1.3647u    0.         0.         0.         0.         0.         0.         3.        
 1.8222u    0.         0.         0.         0.         0.         0.         3.        
 58.402u    11.E-21    5.E-21     5.E-21     0.         0.         0.         3.        
 516.46u    838.E-21   419.E-21   419.E-21   0.         0.         0.         3.        
 0.0025397  20.2E-18   10.12E-18  10.12E-18  0.         0.        -7.553f     3.        
 0.008477   223.5E-18  112.3E-18  112.3E-18  0.         0.        -84.044f    3.        
 0.021697   1.4403f    729.1E-18  729.1E-18  0.         0.        -549.14f    3.        
 0.04499    6.0082f    3.0783f    3.0783f    0.         0.        -2.3432p    3.        
 0.079098   17.642f    9.2044f    9.2044f    0.         0.        -7.1143p    3.        
 0.11321    34.125f    18.124f    18.124f   -71.054f    0.        -14.221p    3.        
 0.16537    65.281f    35.708f    35.708f   -138.67f    0.        -28.721p    3.        
 0.21753    99.115f    55.955f    55.955f   -216.27f   -116.46f   -46.228p    3.        
 0.2697     130.03f    76.161f    76.161f   -291.54f   -160.87f   -64.812p    3.        
 0.32186    153.07f    93.647f    93.647f   -353.5f    -199.4f    -82.432p    3.        
 0.37403    164.23f    106.04f    106.04f   -395.46f   -231.15f   -97.153p    3.        
 0.45227    153.27f    111.19f    111.19f   -405.15f   -249.91f   -110.2p     3.        
 0.53052    108.8f     98.338f    98.338f   -345.11f   -234.42f   -109.98p    3.        
 0.64789    0.         50.959f    50.959f   -154.77f   -150.88f   -85.946p    3.        
 0.76526   -122.82f   -11.324f   -11.324f    0.         0.        -45.059p    3.        
 0.84351   -182.85f   -47.861f   -47.861f    215.27f    0.        -17.874p    3.        
 0.88263   -201.13f   -61.463f   -61.463f    261.68f    70.277f   -6.7858p    3.        
 0.92175   -209.97f   -70.822f   -70.822f    289.71f    90.594f    1.6002p    3.        
 0.96088   -209.07f   -75.509f   -75.509f    299.4f     101.64f    6.8044p    3.        
 1.        -198.67f   -75.367f   -75.367f    290.49f    103.31f    8.5395p    3.        
#Freq       vm(pl0)    vm(pl1)    vm(pl2)    vm(ph0)    vm(ph1)    vm(ph2)   
 0.1        0.         55.51E-18  55.51E-18  55.51E-18  124.1E-18  0.        
 1.         3.469E-18  0.         0.         111.E-18   13.88E-18  3.469E-18 
 10.        0.         0.         0.         3.469E-18  111.E-18   111.E-18  
Gnucap   System status
iterations: op=0, dc=0, tran=93, fourier=0, total=127
transient timesteps: accepted=27, rejected=4, total=31
nodes: user=13, subckt=0, model=13, total=26
dctran density=36.1%, ac density=36.1%
