#Time       v(pl0)     v(pl1)     v(pl2)     v(ph0)     v(ph1)     v(ph2)     iter(0)   
 0.         0.         0.         0.         0.         0.         0.         3.        
 497.87n    0.         0.         0.         0.         0.         0.         15.       
 766.41n    0.         0.         0.         0.         0.         0.         3.        
 1.3841u    0.         0.         0.         0.         0.         0.         3.        
 1.8403u    0.         0.         0.         0.         0.         0.         3.        
 59.16u     11.E-21    5.E-21     5.E-21     0.         0.         0.         3.        
 521.24u    853.E-21   427.E-21   427.E-21   0.         0.         0.         3.        
 0.0025568  20.47E-18  10.25E-18  10.25E-18  0.         0.        -7.6571f    3.        
 0.0085296  226.2E-18  113.7E-18  113.7E-18  0.         0.        -85.106f    3.        
 0.021749   1.4474f    732.5E-18  732.5E-18  0.         0.        -551.86f    3.        
 0.045041   6.0212f    3.0839f    3.0839f    0.         0.        -2.3485p    3.        
 0.079147   17.666f    9.2131f    9.2131f    0.         0.        -7.123p     3.        
 0.11325    34.153f    18.138f    18.138f   -71.387f    0.        -14.233p    3.        
 0.16541    65.295f    35.728f    35.728f   -139.33f    0.        -28.735p    3.        
 0.21758    99.101f    55.99f     55.99f    -215.72f   -116.02f   -46.242p    3.        
 0.26974    130.09f    76.217f    76.217f   -290.88f   -160.76f   -64.825p    3.        
 0.3219     153.21f    93.703f    93.703f   -354.38f   -200.62f   -82.444p    3.        
 0.37406    164.42f    106.11f    106.11f   -395.29f   -230.15f   -97.161p    3.        
 0.4523     153.6f     111.27f    111.27f   -403.62f   -250.83f   -110.2p     3.        
 0.53055    109.22f    98.449f    98.449f   -344.95f   -233.48f   -109.98p    3.        
 0.64791    0.         51.14f     51.14f    -153.99f   -150.66f   -85.94p     3.        
 0.76527   -122.3f    -11.123f   -11.123f    0.         0.        -45.053p    3.        
 0.84352   -182.35f   -47.642f   -47.642f    215.38f    0.        -17.87p     3.        
 0.88264   -200.65f   -61.244f   -61.244f    261.46f    69.722f   -6.7832p    3.        
 0.92176   -209.51f   -70.6f     -70.6f      290.1f     90.206f    1.6016p    3.        
 0.96088   -208.61f   -75.284f   -75.284f    300.65f    101.31f    6.8053p    3.        
 1.        -198.23f   -75.152f   -75.152f    291.07f    102.65f    8.5402p    3.        
#Freq       vm(pl0)    vm(pl1)    vm(pl2)    vm(ph0)    vm(ph1)    vm(ph2)   
 0.1        0.         55.51E-18  55.51E-18  55.51E-18  124.1E-18  0.        
 1.         3.469E-18  0.         0.         111.E-18   13.88E-18  3.469E-18 
 10.        0.         0.         0.         3.469E-18  111.E-18   111.E-18  
Gnucap   System status
iterations: op=0, dc=0, tran=93, fourier=0, total=127
transient timesteps: accepted=27, rejected=4, total=31
nodes: user=13, subckt=0, model=13, total=26
dctran density=36.1%, ac density=36.1%
