abs: already installed, replacing
stashing as abs:0
exp: already installed, replacing
stashing as exp:0
dut ( 0 out n1 0 )  pid1  p=.1 i=100 d=1m
c ( out 0 ) 1u
r ( out 0 ) 1
V1 ( n1 0 ) sin offset=NA( 0.) amplitude= 1. frequency= 100. delay=NA( 0.) damping=NA( 0.)
#Time          v(n1)         v(out)        iter(0)       timef(dut.ddt_1)
 0.            0.            0.            3.            Inf          
 19.137027p    12.024149n    12.023919u    28.           29.137027p   
 30.137027p    18.935653n    18.935252u    4.            Inf          
 2.6638361n    1.6737376u    0.0016715113  4.            8.2283405u   
 9.4547014n    5.9405641u    0.0059125891  4.            12.632955u   
 24.381754n    15.319508u    0.015134463   4.            17.33574u    
 39.308806n    24.698451u    0.024219716   4.            20.338006u   
 54.235858n    34.077395u    0.033170371   4.            22.652262u   
 69.16291n     43.456338u    0.041988423   4.            24.57457u    
 84.089963n    52.835282u    0.050675836   4.            26.239172u   
 99.017015n    62.214225u    0.059234546   4.            27.718174u   
 113.94407n    71.593169u    0.067666461   4.            29.056397u   
 128.87112n    80.972112u    0.075973458   4.            30.283725u   
 143.79817n    90.351056u    0.084157388   4.            31.421387u   
 158.72522n    99.729999u    0.092220076   4.            32.481642u   
 173.65228n    109.10894u    0.10016332    4.            33.480374u   
 188.57933n    118.48789u    0.10798888    4.            34.42466u    
 203.50638n    127.86683u    0.11569851    4.            35.318699u   
 227.58557n    142.99623u    0.12789546    4.            36.676157u   
 251.66475n    158.12563u    0.13980225    4.            37.94407u    
 275.74393n    173.25502u    0.15142578    4.            39.132898u   
 299.82312n    188.38442u    0.16277279    4.            40.257571u   
 323.9023n     203.51382u    0.17384986    4.            41.322671u   
 362.22684n    227.59383u    0.19094049    4.            42.919268u   
 400.55138n    251.67385u    0.20738854    4.            44.407719u   
 438.87591n    275.75386u    0.22321816    4.            45.807441u   
 477.20045n    299.83388u    0.23845262    4.            47.129419u   
 515.52498n    323.91389u    0.2531143     4.            48.384784u   
 576.52237n    362.23968u    0.27532545    4.            50.263877u   
 637.51975n    400.56546u    0.29622211    4.            52.018728u   
 698.51714n    438.89125u    0.31588208    4.            53.668732u   
 759.51453n    477.21703u    0.33437856    4.            55.228873u   
 820.51191n    515.54282u    0.35178042    4.            56.710633u   
 917.59604n    576.54256u    0.37739003    4.            58.930305u   
 1.0146802u    637.54231u    0.40062902    4.            61.005289u   
 1.1117643u    698.54205u    0.42171689    4.            62.95763u    
 1.2088484u    759.54179u    0.44085279    4.            64.804964u   
 1.3059325u    820.54152u    0.45821748    4.            66.560832u   
 1.4604504u    917.6279u     0.48262855    4.            69.193783u   
 1.6149682u    0.0010147143  0.50353958    4.            71.657385u   
 1.769486u     0.0011118006  0.5214526     4.            73.978083u   
 1.9240038u    0.001208887   0.53679763    4.            76.176069u   
 2.0785217u    0.0013059733  0.54994302    4.            78.267383u   
 2.3244549u    0.0014604975  0.56713769    4.            81.406927u   
 2.570388u     0.0016150217  0.58057004    4.            84.348956u   
 2.8163212u    0.0017695459  0.59106403    4.            87.124044u   
 3.0622544u    0.00192407    0.59926315    4.            89.755852u   
 3.3081876u    0.0020785941  0.60566999    4.            92.263124u   
 3.699616u     0.0023245352  0.61315591    4.            96.033032u   
 4.0910445u    0.0025704762  0.6181992     4.            99.572297u   
 4.482473u     0.0028164171  0.62159947    4.            102.91667u   
 4.8739015u    0.0030623578  0.62389458    4.            106.09376u   
 5.2653299u    0.0033082983  0.6254463     4.            109.12543u   
 5.8883265u    0.0036997362  0.62697577    4.            113.69299u   
 6.5113232u    0.0040911736  0.62779697    4.            117.99128u   
 7.1343198u    0.0044826103  0.62824631    4.            122.062u     
 7.7573164u    0.0048740463  0.62850041    4.            125.93744u   
 8.380313u     0.0052654816  0.62865198    4.            129.64309u   
 9.3718402u    0.0058884668  0.62879579    4.            135.24u      
 10.363367u    0.0065114498  0.62888443    4.            140.52253u   
 11.354895u    0.0071344302  0.62895435    4.            145.53942u   
 12.346422u    0.0077574078  0.62901783    4.            150.32833u   
 13.337949u    0.0083803825  0.62907902    4.            154.91902u   
 14.916119u    0.009371937   0.62917485    4.            161.87455u   
 16.49429u     0.010363482   0.62926977    4.            168.46304u   
 18.07246u     0.011355018   0.62936417    4.            174.7414u    
 19.65063u     0.012346542   0.6294581     4.            180.7536u    
 21.228801u    0.013338053   0.62955157    4.            186.5344u    
 23.740447u    0.01491601    0.62969946    4.            195.32427u   
 26.252094u    0.016493929   0.62984608    4.            203.68577u   
 28.76374u     0.018071807   0.62999154    4.            211.68534u   
 31.275387u    0.01964964    0.63013583    4.            219.37436u   
 33.787033u    0.021227424   0.63027894    4.            226.79332u   
 37.784712u    0.023738604   0.63050458    4.            238.12238u   
 41.78239u     0.026249635   0.63072688    4.            248.95155u   
 45.780069u    0.028760499   0.63094633    4.            259.35849u   
 49.777748u    0.031271182   0.63116276    4.            269.40331u   
 53.775426u    0.033781668   0.63137622    4.            279.13306u   
 60.138974u    0.03777744    0.63171064    4.            294.06001u   
 66.502521u    0.041772608   0.63203633    4.            308.40407u   
 72.866069u    0.045767109   0.63235507    4.            322.25621u   
 79.229616u    0.049760877   0.63266593    4.            335.68687u   
 85.593163u    0.05375385    0.63296938    4.            348.75043u   
 95.730594u    0.060113043   0.63343917    4.            368.90196u   
 105.86802u    0.066469797   0.63388619    4.            388.37457u   
 116.00545u    0.072823854   0.63431632    4.            407.27543u   
 126.14288u    0.079174957   0.63472558    4.            425.68774u   
 136.28031u    0.085522848   0.63511661    4.            443.67331u   
 152.42388u    0.095624415   0.63570424    4.            471.53436u   
 168.56745u    0.10571614    0.63623309    4.            498.61048u   
 184.71102u    0.11579699    0.63672046    4.            525.02895u   
 200.85458u    0.12586593    0.63715277    4.            550.88941u   
 216.99815u    0.13592192    0.63754052    4.            576.25871u   
 242.81082u    0.1519714     0.63806874    4.            615.87476u   
 268.62349u    0.16798091    0.63844543    4.            654.59165u   
 294.43616u    0.18394623    0.63871793    4.            692.56622u   
 320.24883u    0.19986317    0.63884554    4.            729.92341u   
 346.0615u     0.21572754    0.63886303    4.            766.72615u   
 387.6733u     0.24118074    0.63864799    4.            824.8323u    
 429.28511u    0.26646908    0.63803932    4.            881.94359u   
 470.89691u    0.29157527    0.63716314    4.            938.27004u   
 512.50872u    0.31648216    0.63590586    4.            993.98665u   
 575.33978u    0.35367455    0.63353669    4.            0.0010764972 
 638.17085u    0.3903158     0.63021873    4.            0.001158013  
 701.00192u    0.42634882    0.62636329    4.            0.0012388361 
 763.83299u    0.46171746    0.62159528    4.            0.0013192366 
 862.09008u    0.51556523    0.61312256    4.            0.0014424332 
 960.34718u    0.56744858    0.6023519     4.            0.0015649927 
 0.0010586043  0.61716983    0.59043777    4.            0.00168753   
 0.0012076275  0.68803283    0.56896942    4.            0.0018704185 
 0.0013566508  0.75286802    0.54362369    4.            0.002054194  
 0.0015056741  0.81110737    0.51518738    4.            0.0022406157 
 0.0017888183  0.90181335    0.45356635    4.            0.0025852616 
 0.002244995   0.98719152    0.33383699    4.            0.003139935  
 0.0027011718  0.99202216    0.19774681    4.            0.0037758149 
 0.0030329367  0.9444583     0.098918063   4.            0.005136553  
 0.0032909761  0.87902407    0.021666948   4.            0.0044662089 
 0.0035490155  0.79053401   -0.050149551   4.            0.0044614261 
 0.0038070548  0.6813091    -0.11831328    4.            0.0045962681 
 0.0040068273  0.58430941   -0.16374044    4.            0.0047092447 
 0.0042065997  0.47811575   -0.20744046    4.            0.0048435645 
 0.0044063721  0.36439905   -0.24211029    4.            0.0049828995 
 0.0046061445  0.2449486    -0.27368871    4.            0.0051208903 
 0.0047602547  0.15006737   -0.2899955     4.            0.0052041401 
 0.0049143649  0.053780188  -0.30643529    4.            0.0052875958 
 0.005027379  -0.017201867  -0.31163984    4.            0.0052910859 
 0.0051005058 -0.063107663  -0.31749295    4.            0.0053781175 
 0.0051736325 -0.10888025   -0.31822706    4.            0.005506572  
 0.0052913488 -0.18203915   -0.32277059    4.            0.0056870048 
 0.0054090651 -0.25420265   -0.32024737    4.            0.0058524233 
 0.0055267814 -0.32497614   -0.31939635    4.            0.0060100211 
 0.0056444977 -0.39397264   -0.31178855    4.            0.0061631183 
 0.0057622139 -0.46081486   -0.30561742    4.            0.006313298  
 0.0058799302 -0.52513731   -0.29303722    4.            0.0064616654 
 0.0059976465 -0.58658827   -0.28173296    4.            0.0066090223 
 0.0061153628 -0.64483172   -0.26440471    4.            0.0067560173 
 0.006233079  -0.69954918   -0.24826297    4.            0.0069032338 
 0.0063507953 -0.75044145   -0.22651803    4.            0.0070512526 
 0.0064685116 -0.79723024   -0.20593696    4.            0.0072007098 
 0.0065862279 -0.83965972   -0.18020626    4.            0.0073523627 
 0.0067039442 -0.87749787   -0.15567795    4.            0.007507182  
 0.0068216604 -0.91053779   -0.12648237    4.            0.0076664996 
 0.0069393767 -0.93859882   -0.098582352   4.            0.0078322675 
 0.007057093  -0.96152752   -0.066521155   4.            0.0080075608 
 0.0071748093 -0.9791985    -0.035895978   4.            0.0081976668 
 0.0072925256 -0.99151516   -0.0016335521  4.            0.0084128166 
 0.0074102418 -0.99841013    0.031013147   4.            0.0086766979 
 0.0075027332 -0.99999853    0.059305492   4.            0.0090190784 
 0.0075952246 -0.99821064    0.085601233   4.            0.0098074032 
 0.0076877159 -0.9930525     0.11437401    4.            0.0099110684 
 0.0077802073 -0.98454153    0.14115739    4.            0.0093393077 
 0.0078726987 -0.97270646    0.17004528    4.            0.0091883252 
 0.008005655  -0.94995254    0.20917873    4.            0.0091679488 
 0.0081386113 -0.92057298    0.24968778    4.            0.0091880188 
 0.0083454323 -0.86219942    0.309654      4.            0.0092966689 
 0.0085522533 -0.78928649    0.36791759    4.            0.0094122373 
 0.0087590742 -0.70306374    0.42180794    4.            0.0095404354 
 0.0089658952 -0.60498515    0.47207206    4.            0.0096768348 
 0.0091727161 -0.49670463    0.51623829    4.            0.0098205027 
 0.0093795371 -0.38004813    0.55515479    4.            0.0099664285 
 0.0095863581 -0.25698284    0.58660288    4.            0.010109981  
 0.009793179  -0.12958401    0.61158475    4.            0.010244652  
 0.01          0.            0.62817598    4.            0.010355225  
