test_trans1 #() dut (.p(1),.n(0));
#Time       v(dut)     pulse(dut) control(0) iter(0)   
 0.         1.         0.         1.         2.        
 0.033333   1.         0.         9.         2.        
 0.1        1.         26.667E-9  2.         2.        
 0.16667    1.         0.44444    6.         2.        
 0.23333    1.         0.88889    6.         2.        
 0.25       1.         1.         2.         2.        
 0.33333    1.         1.         6.         2.        
 0.41667    1.         1.         6.         2.        
 0.48148    1.         1.         6.         2.        
 0.5463     1.         1.         6.         2.        
 1.         0.         1.         2.         2.        
 1.1        0.         1.         2.         2.        
 1.35       0.         0.         2.         2.        
 1.3503     0.         0.         16.        4.        
 1.3506     0.         0.         6.         2.        
 1.3508     0.         0.         6.         2.        
 1.351      0.         0.         6.         2.        
 2.         1.         0.         2.         2.        
 2.1        1.         26.667E-9  2.         2.        
 2.25       1.         1.         2.         2.        
 2.4        1.         1.         6.         2.        
 2.55       1.         1.         6.         2.        
 2.6625     1.         1.         6.         2.        
 2.775      1.         1.         6.         2.        
 3.         0.         1.         2.         2.        
 3.1        0.         1.         2.         2.        
 3.35       0.         0.         2.         2.        
 3.3503     0.         0.         16.        4.        
 3.3505     0.         0.         6.         2.        
 3.3508     0.         0.         6.         2.        
 3.351      0.         0.         6.         2.        
 4.         1.         0.         1.         2.        
#Time       v(dut)     pulse(dut) control(0) iter(0)   
 0.         1.         0.         1.         2.        
 0.2        1.         0.66667    1.         8.        
 0.4        1.         1.         1.         8.        
 0.6        1.         1.         1.         4.        
 0.8        1.         1.         1.         2.        
 1.         0.         1.         1.         2.        
 1.2        0.         0.6        1.         4.        
 1.4        0.         0.         1.         14.       
 1.6        0.         0.         1.         2.        
 1.8        0.         0.         1.         2.        
 2.         1.         0.         1.         2.        
 2.2        1.         0.66667    1.         4.        
 2.4        1.         1.         1.         6.        
 2.6        1.         1.         1.         6.        
 2.8        1.         1.         1.         2.        
 3.         0.         1.         1.         2.        
 3.2        0.         0.6        1.         4.        
 3.4        0.         0.         1.         14.       
 3.6        0.         0.         1.         2.        
 3.8        0.         0.         1.         2.        
 4.         1.         0.         1.         2.        
