//va_laplace_nd #() a(1,2,3,4); 
va_laplace_nd #(.n0(1),.n1(0),.n2(0),.d0(1),.d1(0),.d2(0)) b0 (.out0(0),.out1(1),.in0(in),.in1(0));
va_laplace_nd #(.n0(.1),.n1(1),.n2(0),.d0(.1),.d1(1),.d2(0)) b1 (.out0(0),.out1(2),.in0(in),.in1(0));
va_laplace_nd #(.n0(.1),.n1(1),.n2(1.000001),.d0(.1),.d1(1),.d2(1.000001)) b2 (.out0(0),.out1(3),.in0(in),.in1(0));
vsine #(.freq(1),.ampl(1)) v1 (.p(in),.n(0));
resistor #(.r(1)) r1 (.p(1),.n(0));
resistor #(.r(1)) r1 (.p(2),.n(0));
resistor #(.r(1)) r1 (.p(3),.n(0));
#Time       v(1)       v(2)       v(3)       v(in)     
 0.         0.         0.         0.         0.        
 1.6745E-9  10.521E-9  10.521E-9  10.521E-9  10.521E-9 
 2.7745E-9  17.433E-9  17.433E-9  17.433E-9  17.433E-9 
 3.8745E-9  24.344E-9  24.344E-9  24.344E-9  24.344E-9 
 4.9745E-9  31.256E-9  31.256E-9  31.256E-9  31.256E-9 
 28.277E-6  177.67E-6  177.67E-6  177.67E-6  177.67E-6 
 72.944E-6  458.32E-6  458.32E-6  458.32E-6  458.32E-6 
 117.61E-6  738.98E-6  738.98E-6  738.98E-6  738.98E-6 
 162.28E-6  0.0010196  0.0010196  0.0010196  0.0010196 
 206.95E-6  0.0013003  0.0013003  0.0013003  0.0013003 
 251.61E-6  0.0015809  0.0015809  0.0015809  0.0015809 
 296.28E-6  0.0018616  0.0018616  0.0018616  0.0018616 
 367.95E-6  0.0023119  0.0023119  0.0023119  0.0023119 
 439.61E-6  0.0027621  0.0027621  0.0027621  0.0027621 
 548.5E-6   0.0034464  0.0034464  0.0034464  0.0034464 
 657.4E-6   0.0041306  0.0041306  0.0041306  0.0041306 
 766.3E-6   0.0048148  0.0048148  0.0048148  0.0048148 
 951.34E-6  0.0059774  0.0059774  0.0059774  0.0059774 
 0.0011364  0.0071401  0.0071401  0.0071401  0.0071401 
 0.0014185  0.0089129  0.0089129  0.0089129  0.0089129 
 0.0017007  0.010686   0.010686   0.010686   0.010686  
 0.0019829  0.012458   0.012458   0.012458   0.012458  
 0.0024618  0.015467   0.015467   0.015467   0.015467  
 0.0029407  0.018476   0.018476   0.018476   0.018476  
 0.0036706  0.023061   0.023061   0.023061   0.023061  
 0.0044005  0.027646   0.027646   0.027646   0.027646  
 0.0051304  0.03223    0.03223    0.03223    0.03223   
 0.0063693  0.040009   0.040009   0.040009   0.040009  
 0.0076083  0.047786   0.047786   0.047786   0.047786  
 0.0094986  0.059646   0.059646   0.059646   0.059646  
 0.011389   0.071497   0.071497   0.071497   0.071497  
 0.013279   0.083338   0.083338   0.083338   0.083338  
 0.016493   0.10344    0.10344    0.10344    0.10344   
 0.019707   0.12351    0.12351    0.12351    0.12351   
 0.024609   0.15401    0.15401    0.15401    0.15401   
 0.02951    0.18436    0.18436    0.18436    0.18436   
 0.034412   0.21453    0.21453    0.21453    0.21453   
 0.042736   0.2653     0.2653     0.2653     0.2653    
 0.05106    0.31534    0.31534    0.31534    0.31534   
 0.063883   0.3907     0.3907     0.3907     0.3907    
 0.076707   0.46352    0.46352    0.46352    0.46352   
 0.095942   0.56697    0.56697    0.56697    0.56697   
 0.11518    0.66215    0.66215    0.66215    0.66215   
 0.14569    0.7928     0.7928     0.7928     0.7928    
 0.1762     0.8944     0.8944     0.8944     0.8944    
 0.20671    0.96324    0.96324    0.96324    0.96324   
 0.23722    0.99678    0.99678    0.99678    0.99678   
 0.26773    0.9938     0.9938     0.9938     0.9938    
 0.28927    0.96971    0.96971    0.96971    0.96971   
 0.32158    0.90057    0.90057    0.90057    0.90057   
 0.35388    0.79444    0.79444    0.79444    0.79444   
 0.40358    0.56942    0.56942    0.56942    0.56942   
 0.45328    0.28932    0.28932    0.28932    0.28932   
 0.50299   -0.018761  -0.018761  -0.018761  -0.018761  
 0.55269   -0.32503   -0.32503   -0.32503   -0.32503   
 0.60239   -0.59986   -0.59986   -0.59986   -0.59986   
 0.65209   -0.81667   -0.81667   -0.81667   -0.81667   
 0.70179   -0.95447   -0.95447   -0.95447   -0.95447   
 0.75149   -0.99996   -0.99996   -0.99996   -0.99996   
 0.80119   -0.94871   -0.94871   -0.94871   -0.94871   
 0.8509    -0.8057    -0.8057    -0.8057    -0.8057    
 0.9006    -0.58475   -0.58475   -0.58475   -0.58475   
 0.9503    -0.30723   -0.30723   -0.30723   -0.30723   
 0.97515   -0.15551   -0.15551   -0.15551   -0.15551   
 1.         14.E-15    13.E-15   -78.E-15    14.E-15   
#Freq       vm(1)      vm(2)      vm(3)      vm(in)     vp(1)      vp(2)      vp(3)      vp(in)    
 0.01       1.         1.         1.         1.         0.         0.         0.         0.        
 0.1        1.         1.         1.         1.         0.         0.         0.         0.        
 1.         1.         1.         1.         1.         0.         0.         1.2602f    0.        
 10.        1.         1.         1.         1.         0.         0.         0.         0.        
 100.       1.         1.         1.         1.         0.         0.         0.         0.        
Gnucap   System status
iterations: op=0, dc=0, tran=239, fourier=0, total=316
transient timesteps: accepted=65, rejected=7, total=72
nodes: user=4, subckt=0, model=10, total=14
dctran density=51.0%, ac density=19.4%
