//va_laplace_nd #() a(1,2,3,4); 
va_laplace_nd #(.n0(1),.d0(1)) b0 (.out0(0),.out1(1),.in0(in),.in1(0));
va_laplace_nd #(.n0(2),.n1(2),.d0(2),.d1(2)) b1 (.out0(0),.out1(2),.in0(in),.in1(0));
va_laplace_nd #(.n0(1),.n1(0),.n2(1),.d0(1),.d1(0),.d2(1)) b1 (.out0(0),.out1(3),.in0(in),.in1(0));
vsine #(.freq(1),.ampl(1)) v1 (.p(in),.n(0));
resistor #(.r(1)) r1 (.p(1),.n(0));
resistor #(.r(1)) r1 (.p(2),.n(0));
resistor #(.r(1)) r1 (.p(3),.n(0));
#Time       v(1)       v(2)       v(3)       v(in)     
 0.         0.         0.         0.         0.        
 498.E-9    3.129E-6   3.129E-6   3.129E-6   3.129E-6  
 766.E-9    4.8129E-6  4.8129E-6  4.8129E-6  4.8129E-6 
 1.384E-6   8.6959E-6  8.6959E-6  8.6959E-6  8.6959E-6 
 1.84E-6    11.561E-6  11.561E-6  11.561E-6  11.561E-6 
 56.71E-6   356.32E-6  356.32E-6  356.32E-6  356.32E-6 
 111.58E-6  701.08E-6  701.08E-6  701.08E-6  701.08E-6 
 166.45E-6  0.0010458  0.0010458  0.0010458  0.0010458 
 221.32E-6  0.0013906  0.0013906  0.0013906  0.0013906 
 276.19E-6  0.0017354  0.0017354  0.0017354  0.0017354 
 331.06E-6  0.0020801  0.0020801  0.0020801  0.0020801 
 385.93E-6  0.0024249  0.0024249  0.0024249  0.0024249 
 479.26E-6  0.0030112  0.0030112  0.0030112  0.0030112 
 572.58E-6  0.0035976  0.0035976  0.0035976  0.0035976 
 714.79E-6  0.0044911  0.0044911  0.0044911  0.0044911 
 857.E-6    0.0053846  0.0053846  0.0053846  0.0053846 
 999.2E-6   0.0062781  0.0062781  0.0062781  0.0062781 
 0.0012405  0.0077939  0.0077939  0.0077939  0.0077939 
 0.0014817  0.0093096  0.0093096  0.0093096  0.0093096 
 0.0018495  0.01162    0.01162    0.01162    0.01162   
 0.0022173  0.013931   0.013931   0.013931   0.013931  
 0.002585   0.016242   0.016242   0.016242   0.016242  
 0.0032092  0.020163   0.020163   0.020163   0.020163  
 0.0038334  0.024083   0.024083   0.024083   0.024083  
 0.0047848  0.030059   0.030059   0.030059   0.030059  
 0.0057363  0.036034   0.036034   0.036034   0.036034  
 0.0066877  0.042008   0.042008   0.042008   0.042008  
 0.0083002  0.052128   0.052128   0.052128   0.052128  
 0.0099128  0.062243   0.062243   0.062243   0.062243  
 0.01237    0.077642   0.077642   0.077642   0.077642  
 0.014826   0.093022   0.093022   0.093022   0.093022  
 0.017283   0.10838    0.10838    0.10838    0.10838   
 0.021447   0.13435    0.13435    0.13435    0.13435   
 0.025611   0.16023    0.16023    0.16023    0.16023   
 0.03198    0.19959    0.19959    0.19959    0.19959   
 0.038348   0.23863    0.23863    0.23863    0.23863   
 0.044717   0.27728    0.27728    0.27728    0.27728   
 0.055572   0.34212    0.34212    0.34212    0.34212   
 0.066428   0.40537    0.40537    0.40537    0.40537   
 0.083099   0.49872    0.49872    0.49872    0.49872   
 0.09977    0.58661    0.58661    0.58661    0.58661   
 0.12478    0.70611    0.70611    0.70611    0.70611   
 0.14978    0.80821    0.80821    0.80821    0.80821   
 0.18843    0.9261     0.9261     0.9261     0.9261    
 0.22708    0.98964    0.98964    0.98964    0.98964   
 0.29149    0.96622    0.96622    0.96622    0.96622   
 0.3559     0.78669    0.78669    0.78669    0.78669   
 0.42031    0.48007    0.48007    0.48007    0.48007   
 0.48472    0.09588    0.09588    0.09588    0.09588   
 0.5706    -0.42917   -0.42917   -0.42917   -0.42917   
 0.65648   -0.83226   -0.83226   -0.83226   -0.83226   
 0.74236   -0.99885   -0.99885   -0.99885   -0.99885   
 0.82824   -0.88158   -0.88158   -0.88158   -0.88158   
 0.87118   -0.72388   -0.72388   -0.72388   -0.72388   
 0.91412   -0.5138    -0.5138    -0.5138    -0.5138    
 0.95706   -0.26654   -0.26654   -0.26654   -0.26654   
 1.         14.E-15    109.E-15  -100.E-15   14.E-15   
#Freq       vm(1)      vm(2)      vm(3)      vm(in)     vp(1)      vp(2)      vp(3)      vp(in)    
 0.01       1.         1.         1.         1.         0.         0.         0.         0.        
 0.1        1.         1.         1.         1.         0.         0.         0.         0.        
 1.         1.         1.         1.         1.         0.         0.         0.         0.        
 10.        1.         1.         1.         1.         0.         0.         0.         0.        
 100.       1.         1.         1.         1.         0.         0.         0.         0.        
Gnucap   System status
iterations: op=0, dc=0, tran=183, fourier=0, total=249
transient timesteps: accepted=57, rejected=4, total=61
nodes: user=4, subckt=0, model=7, total=11
dctran density=53.7%, ac density=25.6%
