va_laplace_zp #(.zr0(0.),.pr0(0.)) b0 (.out0(0),.out1(out1),.in0(in),.in1(0));
// not checked 
va_laplace_zp #(.zr0(0.),.pr0(1.)) b0 (.out0(0),.out1(out2),.in0(in),.in1(0));
va_laplace_zp #(.pr0(0.)) b0 (.out0(0),.out1(out3),.in0(in),.in1(0));
no data, assuming no root, constant 1.
#          
 0.        
va_laplace_zp #(.n0( 0.),.n1( 1.),.d0( 0.),.d1( 1.)) b0 (.out0(0),.out1(out1),.in0(in),.in1(0));
// not checked 
va_laplace_zp #(.n0( 0.),.n1( 1.),.d0( 1.),.d1(-1.)) b0 (.out0(0),.out1(out2),.in0(in),.in1(0));
va_laplace_zp #(.n0( 1.),.d0( 0.),.d1( 1.)) b0 (.out0(0),.out1(out3),.in0(in),.in1(0));
#Time       v(in)      v(out1)    v(out2)    v(out3)   
 0.         0.         0.         0.         0.        
 498.E-9    3.129E-6   3.129E-6  -3.129E-6   1.558E-12 
 766.E-9    4.8129E-6  4.8129E-6 -4.8129E-6  2.622E-12 
 1.384E-6   8.6959E-6  8.6959E-6 -8.6959E-6  6.797E-12 
 1.84E-6    11.561E-6  11.561E-6 -11.561E-6  11.41E-12 
 59.186E-6  371.88E-6  371.88E-6 -371.89E-6  11.006E-9 
 521.69E-6  0.0032779  0.0032779 -0.0032787  855.03E-9 
 0.0025698  0.016146   0.016146  -0.016167   20.746E-6 
 0.0087268  0.054805   0.054805  -0.055045   239.17E-6 
 0.023522   0.14726    0.14726   -0.149      0.0017339 
 0.056071   0.34506    0.34506   -0.35501    0.0097462 
 0.08862    0.52849    0.52849   -0.55322    0.023963  
 0.14223    0.77937    0.77937   -0.84149    0.05902   
 0.19584    0.94266    0.94266   -1.0556     0.10518   
 0.24945    0.99999    0.99999   -1.1727     0.15725   
 0.30306    0.94493    0.94493   -1.1807     0.20939   
 0.35667    0.78367    0.78367   -1.0801     0.25572   
 0.43709    0.38507    0.38507   -0.75525    0.30272   
 0.5175    -0.10977   -0.10977   -0.30296    0.31379   
 0.59792   -0.57717   -0.57717    0.15863    0.28617   
 0.73195   -0.99357   -0.99357    0.62774    0.1809    
 0.86597   -0.74605   -0.74605    0.45261    0.064327  
 0.93299   -0.40872   -0.40872    0.13497    0.025634  
 0.96649   -0.20898   -0.20898   -0.063578   0.015286  
 1.         14.E-15    14.E-15   -0.27828    0.011785  
#Freq       vm(in)     vm(out1)   vm(out2)   vm(out3)   vp(in)     vp(out1)   vp(out2)   vp(out3)  
 0.01       1.         1.         0.062708   15.915     0.         0.         93.595    -90.       
 0.1        1.         1.         0.53202    1.5915     0.         0.         122.14    -90.       
 1.         1.         1.         0.98757    0.15915    0.         0.         170.96    -90.       
 10.        1.         1.         0.99987    0.015915   0.         0.         179.09    -90.       
 100.       1.         1.         1.         0.0015915  0.         0.         179.91    -90.       
Gnucap   System status
iterations: op=0, dc=3, tran=87, fourier=0, total=124
transient timesteps: accepted=25, rejected=4, total=29
nodes: user=6, subckt=0, model=7, total=13
dctran density=49.1%, ac density=21.9%
