#Time       v(1)       v(2)       v(3)       v(in)     
 0.         0.         0.         0.         0.        
 134.E-9    0.         0.         0.         841.95E-9 
 633.E-9    0.         0.         0.         3.9773E-6 
 924.E-9    0.         0.         0.         5.8057E-6 
 1.384E-6   0.         0.         0.         8.6959E-6 
 34.182E-6  60.E-15    60.E-15    0.         214.77E-6 
 66.98E-6   352.E-15   352.E-15   0.         420.85E-6 
 99.778E-6  1.096E-12  1.096E-12  0.         626.92E-6 
 132.58E-6  2.514E-12  2.514E-12  0.         833.E-6   
 165.37E-6  4.828E-12  4.828E-12  0.         0.0010391 
 198.17E-6  8.26E-12   8.26E-12   0.         0.0012452 
 230.97E-6  13.03E-12  13.03E-12  0.         0.0014512 
 286.83E-6  24.93E-12  24.93E-12  0.         0.0018022 
 342.68E-6  42.44E-12  42.44E-12  0.         0.0021531 
 427.81E-6  82.61E-12  82.61E-12  0.         0.002688  
 512.94E-6  142.2E-12  142.2E-12  0.         0.0032229 
 598.07E-6  225.2E-12  225.2E-12  0.         0.0037578 
 742.51E-6  431.4E-12  431.4E-12  0.         0.0046653 
 886.95E-6  734.8E-12  734.8E-12  0.         0.0055729 
 0.0011072  1.4305E-9  1.4305E-9  0.         0.0069565 
 0.0013274  2.4631E-9  2.4631E-9  0.         0.0083401 
 0.0015476  3.8996E-9  3.8996E-9  0.         0.0097237 
 0.0019214  7.4694E-9  7.4694E-9  0.         0.012072  
 0.0022952  12.723E-9  12.723E-9  0.         0.014421  
 0.0028653  24.771E-9  24.771E-9  0.         0.018002  
 0.0034355  42.654E-9  42.654E-9  0.         0.021584  
 0.0040056  67.528E-9  67.528E-9  0.         0.025165  
 0.0049735  129.34E-9  129.34E-9  0.         0.031244  
 0.0059414  220.27E-9  220.27E-9  0.         0.037322  
 0.0074185  428.86E-9  428.86E-9  0.         0.046595  
 0.0088955  738.34E-9  738.34E-9  0.         0.055863  
 0.010373   1.1686E-6  1.1686E-6  0.         0.065127  
 0.012884   2.239E-6   2.239E-6   0.         0.080866  
 0.015396   3.8128E-6  3.8128E-6  0.         0.096586  
 0.019242   7.4344E-6  7.4344E-6  0.         0.12061   
 0.023088   12.805E-6  12.805E-6  0.         0.14456   
 0.026934   20.264E-6  20.264E-6  0.         0.16843   
 0.033509   38.899E-6  38.899E-6  0.         0.20899   
 0.040084   66.258E-6  66.258E-6  0.         0.2492    
 0.050188   129.27E-6  129.27E-6  0.         0.31014   
 0.060293   222.3E-6   222.3E-6   0.         0.36983   
 0.075698   434.9E-6   434.9E-6   0.         0.45789   
 0.091103   747.6E-6   747.6E-6   0.         0.54166   
 0.11502    0.0014716  0.0014716  0.         0.66141   
 0.13894    0.0025275  0.0025275  0.         0.76625   
 0.17808    0.0050785  0.0050785  0.         0.89962   
 0.21722    0.0087279  0.0087279  0.         0.97886   
 0.27743    0.016481   0.016481   0.         0.98518   
 0.33765    0.026486   0.026486   0.         0.85216   
 0.39786    0.037983   0.037983   0.         0.59861   
 0.45807    0.049888   0.049888   0.         0.26039   
 0.54839    0.065627   0.065627   0.        -0.29941   
 0.63872    0.075733   0.075733   0.        -0.76535   
 0.72904    0.077783   0.077783   0.        -0.99134   
 0.78323    0.074865   0.074865   0.        -0.97828   
 0.83742    0.069187   0.069187   0.        -0.8529    
 0.89161    0.061402   0.061402   0.        -0.62957   
 0.94581    0.052373   0.052373   0.        -0.33396   
 1.         0.043077   0.043077   0.         14.E-15   
va_laplace_nd #(.n0(1),.d0(2),.d1(2),.d2(1)) b1 (.out0(0),.out1(2),.in0(in),.in1(0));
va_laplace_np #(.n0(.5),.d0( 1.),.d1( 1.),.d2( 0.5)) b0 (.out0(0),.out1(1),.in0(in),.in1(0));
vsine #(.freq(1),.ampl(1)) v1 (.p(in),.n(0));
resistor #(.r(1)) r1 (.p(1),.n(0));
resistor #(.r(1)) r1 (.p(2),.n(0));
resistor #(.r(1)) r1 (.p(3),.n(0));
#Freq       vm(1)      vm(2)      vm(3)      vm(in)     vp(1)      vp(2)      vp(3)      vp(in)    
 0.01       0.5        0.5        0.         1.        -3.6024    -3.6024     0.         0.        
 0.1        0.49053    0.49053    0.         1.        -38.055    -38.055     0.         0.        
 1.         0.025298   0.025298   0.         1.        -161.46    -161.46     0.         0.        
 10.        253.3u     253.3u     0.         1.        -178.18    -178.18     0.         0.        
 100.       2.533u     2.533u     0.         1.        -179.82    -179.82     0.         0.        
va_laplace_nd #(.n0(1),.d0(2),.d1(2),.d2(1)) b1 (.out0(0),.out1(2),.in0(in),.in1(0));
va_laplace_np #(.n0(.5),.d0( 1.),.d1( 1.),.d2( 0.5)) b0 (.out0(0),.out1(1),.in0(in),.in1(0));
vsine #(.freq(1),.ampl(1)) v1 (.p(in),.n(0));
resistor #(.r(1)) r1 (.p(1),.n(0));
resistor #(.r(1)) r1 (.p(2),.n(0));
resistor #(.r(1)) r1 (.p(3),.n(0));
Gnucap   System status
iterations: op=0, dc=0, tran=192, fourier=0, total=261
transient timesteps: accepted=59, rejected=5, total=64
nodes: user=4, subckt=0, model=7, total=11
dctran density=48.8%, ac density=25.6%
