//va_laplace_nd #() a(1,2,3,4); 
va_laplace_nd #(.n0(1),.d0(1)) b0 (.out0(0),.out1(1),.in0(in),.in1(0));
va_laplace_nd #(.n0(1),.n1(1),.d0(1),.d1(1)) b1 (.out0(0),.out1(2),.in0(in),.in1(0));
va_laplace_nd #(.n0(1),.n1(1),.n2(1),.d0(1),.d1(1),.d2(1)) b1 (.out0(0),.out1(3),.in0(in),.in1(0));
vsine #(.freq(1),.ampl(1)) v1 (.p(in),.n(0));
resistor #(.r(1)) r1 (.p(1),.n(0));
resistor #(.r(1)) r1 (.p(2),.n(0));
resistor #(.r(1)) r1 (.p(3),.n(0));
#Time       v(1)       v(2)       v(3)       v(in)     
 0.         0.         0.         0.         0.        
 482.25E-9  3.0301E-6  3.0301E-6  3.0301E-6  3.0301E-6 
 759.47E-9  4.7719E-6  4.7719E-6  4.7719E-6  4.7719E-6 
 1.3647E-6  8.5744E-6  8.5744E-6  8.5744E-6  8.5744E-6 
 1.8222E-6  11.449E-6  11.449E-6  11.449E-6  11.449E-6 
 56.395E-6  354.34E-6  354.34E-6  354.34E-6  354.34E-6 
 110.97E-6  697.24E-6  697.24E-6  697.24E-6  697.24E-6 
 165.54E-6  0.0010401  0.0010401  0.0010401  0.0010401 
 220.11E-6  0.001383   0.001383   0.001383   0.001383  
 274.69E-6  0.0017259  0.0017259  0.0017259  0.0017259 
 329.26E-6  0.0020688  0.0020688  0.0020688  0.0020688 
 383.83E-6  0.0024117  0.0024117  0.0024117  0.0024117 
 476.66E-6  0.0029949  0.0029949  0.0029949  0.0029949 
 569.48E-6  0.0035781  0.0035781  0.0035781  0.0035781 
 710.94E-6  0.004467   0.004467   0.004467   0.004467  
 852.41E-6  0.0053558  0.0053558  0.0053558  0.0053558 
 993.87E-6  0.0062446  0.0062446  0.0062446  0.0062446 
 0.0012339  0.0077527  0.0077527  0.0077527  0.0077527 
 0.0014739  0.0092608  0.0092608  0.0092608  0.0092608 
 0.0018398  0.01156    0.01156    0.01156    0.01156   
 0.0022057  0.013858   0.013858   0.013858   0.013858  
 0.0025716  0.016157   0.016157   0.016157   0.016157  
 0.0031927  0.020059   0.020059   0.020059   0.020059  
 0.0038137  0.02396    0.02396    0.02396    0.02396   
 0.0047607  0.029908   0.029908   0.029908   0.029908  
 0.0057076  0.035854   0.035854   0.035854   0.035854  
 0.0066546  0.0418     0.0418     0.0418     0.0418    
 0.0082619  0.051888   0.051888   0.051888   0.051888  
 0.0098693  0.061971   0.061971   0.061971   0.061971  
 0.01232    0.077332   0.077332   0.077332   0.077332  
 0.014771   0.092675   0.092675   0.092675   0.092675  
 0.017222   0.108      0.108      0.108      0.108     
 0.021386   0.13397    0.13397    0.13397    0.13397   
 0.02555    0.15985    0.15985    0.15985    0.15985   
 0.031919   0.19921    0.19921    0.19921    0.19921   
 0.038288   0.23826    0.23826    0.23826    0.23826   
 0.04781    0.2959     0.2959     0.2959     0.2959    
 0.057332   0.35249    0.35249    0.35249    0.35249   
 0.071615   0.43494    0.43494    0.43494    0.43494   
 0.085898   0.51389    0.51389    0.51389    0.51389   
 0.10766    0.62604    0.62604    0.62604    0.62604   
 0.12943    0.7265     0.7265     0.7265     0.7265    
 0.16425    0.85833    0.85833    0.85833    0.85833   
 0.19907    0.94924    0.94924    0.94924    0.94924   
 0.26068    0.99775    0.99775    0.99775    0.99775   
 0.32229    0.8986     0.8986     0.8986     0.8986    
 0.3839     0.66647    0.66647    0.66647    0.66647   
 0.44551    0.33571    0.33571    0.33571    0.33571   
 0.50712   -0.04473   -0.04473   -0.04473   -0.04473   
 0.6057    -0.61636   -0.61636   -0.61636   -0.61636   
 0.70427   -0.95901   -0.95901   -0.95901   -0.95901   
 0.80285   -0.94537   -0.94537   -0.94537   -0.94537   
 0.85214   -0.80105   -0.80105   -0.80105   -0.80105   
 0.90142   -0.58052   -0.58052   -0.58052   -0.58052   
 0.95071   -0.30476   -0.30476   -0.30476   -0.30476   
 1.         14.E-15    107.E-15  -71.E-15    14.E-15   
#Freq       vm(1)      vm(2)      vm(3)      vm(in)     vp(1)      vp(2)      vp(3)      vp(in)    
 0.01       1.         1.         1.         1.         0.         0.         0.         0.        
 0.1        1.         1.         1.         1.         0.         0.         0.         0.        
 1.         1.         1.         1.         1.         0.         0.         0.         0.        
 10.        1.         1.         1.         1.         0.         0.         0.         0.        
 100.       1.         1.         1.         1.         0.         0.         0.         0.        
//va_laplace_nd #() a(1,2,3,4); 
va_laplace_nd #(.n0(1),.d0(1)) b0 (.out0(0),.out1(1),.in0(in),.in1(0));
va_laplace_nd #(.n0(1),.n1(1),.d0(1),.d1(1)) b1 (.out0(0),.out1(2),.in0(in),.in1(0));
va_laplace_nd #(.n0(1),.n1(1),.n2(1),.d0(1),.d1(1),.d2(1)) b1 (.out0(0),.out1(3),.in0(in),.in1(0));
vsine #(.freq(1),.ampl(1)) v1 (.p(in),.n(0));
resistor #(.r(1)) r1 (.p(1),.n(0));
resistor #(.r(1)) r1 (.p(2),.n(0));
resistor #(.r(1)) r1 (.p(3),.n(0));
Gnucap   System status
iterations: op=0, dc=0, tran=180, fourier=0, total=245
transient timesteps: accepted=56, rejected=4, total=60
nodes: user=4, subckt=0, model=7, total=11
dctran density=53.7%, ac density=25.6%
