//va_laplace_nd #() a(1,2,3,4); 
va_laplace_nd #(.n0(1),.n1(0),.n2(0),.d0(1),.d1(0),.d2(0)) b0 (.out0(0),.out1(1),.in0(in),.in1(0));
va_laplace_nd #(.n0(.1),.n1(1),.n2(0),.d0(.1),.d1(1),.d2(0)) b1 (.out0(0),.out1(2),.in0(in),.in1(0));
va_laplace_nd #(.n0(.1),.n1(1),.n2(1.000001),.d0(.1),.d1(1),.d2(1.000001)) b2 (.out0(0),.out1(3),.in0(in),.in1(0));
vsine #(.freq(1),.ampl(1)) v1 (.p(in),.n(0));
resistor #(.r(1)) r1 (.p(1),.n(0));
resistor #(.r(1)) r1 (.p(2),.n(0));
resistor #(.r(1)) r1 (.p(3),.n(0));
#Time       v(1)       v(2)       v(3)       v(in)     
 0.         0.         0.         0.         0.        
 2.E-9      12.566E-9  12.566E-9  12.566E-9  12.566E-9 
 3.E-9      18.85E-9   18.85E-9   18.85E-9   18.85E-9  
 4.E-9      25.133E-9  25.133E-9  25.133E-9  25.133E-9 
 5.E-9      31.416E-9  31.416E-9  31.416E-9  31.416E-9 
 21.724E-6  136.5E-6   136.5E-6   136.5E-6   136.5E-6  
 66.392E-6  417.15E-6  417.15E-6  417.15E-6  417.15E-6 
 111.06E-6  697.81E-6  697.81E-6  697.81E-6  697.81E-6 
 155.73E-6  978.47E-6  978.47E-6  978.47E-6  978.47E-6 
 200.4E-6   0.0012591  0.0012591  0.0012591  0.0012591 
 245.06E-6  0.0015398  0.0015398  0.0015398  0.0015398 
 289.73E-6  0.0018204  0.0018204  0.0018204  0.0018204 
 359.82E-6  0.0022608  0.0022608  0.0022608  0.0022608 
 429.91E-6  0.0027012  0.0027012  0.0027012  0.0027012 
 536.3E-6   0.0033696  0.0033696  0.0033696  0.0033696 
 642.68E-6  0.0040381  0.0040381  0.0040381  0.0040381 
 749.06E-6  0.0047065  0.0047065  0.0047065  0.0047065 
 929.96E-6  0.0058431  0.0058431  0.0058431  0.0058431 
 0.0011108  0.0069796  0.0069796  0.0069796  0.0069796 
 0.0013866  0.0087124  0.0087124  0.0087124  0.0087124 
 0.0016624  0.010445   0.010445   0.010445   0.010445  
 0.0019382  0.012178   0.012178   0.012178   0.012178  
 0.0024063  0.015119   0.015119   0.015119   0.015119  
 0.0028745  0.01806    0.01806    0.01806    0.01806   
 0.0035882  0.022544   0.022544   0.022544   0.022544  
 0.004302   0.027027   0.027027   0.027027   0.027027  
 0.0050158  0.03151    0.03151    0.03151    0.03151   
 0.0062277  0.03912    0.03912    0.03912    0.03912   
 0.0074396  0.046727   0.046727   0.046727   0.046727  
 0.0092879  0.058325   0.058325   0.058325   0.058325  
 0.011136   0.069914   0.069914   0.069914   0.069914  
 0.012985   0.081494   0.081494   0.081494   0.081494  
 0.016128   0.10116    0.10116    0.10116    0.10116   
 0.019271   0.12079    0.12079    0.12079    0.12079   
 0.024055   0.15057    0.15057    0.15057    0.15057   
 0.028839   0.18021    0.18021    0.18021    0.18021   
 0.03598    0.22415    0.22415    0.22415    0.22415   
 0.043121   0.26764    0.26764    0.26764    0.26764   
 0.053873   0.33206    0.33206    0.33206    0.33206   
 0.064624   0.39498    0.39498    0.39498    0.39498   
 0.080751   0.48588    0.48588    0.48588    0.48588   
 0.096878   0.57181    0.57181    0.57181    0.57181   
 0.12197    0.6935     0.6935     0.6935     0.6935    
 0.14705    0.79799    0.79799    0.79799    0.79799   
 0.18767    0.92428    0.92428    0.92428    0.92428   
 0.22829    0.99071    0.99071    0.99071    0.99071   
 0.2689     0.99296    0.99296    0.99296    0.99296   
 0.29411    0.96184    0.96184    0.96184    0.96184   
 0.33126    0.87245    0.87245    0.87245    0.87245   
 0.36842    0.73575    0.73575    0.73575    0.73575   
 0.40557    0.55913    0.55913    0.55913    0.55913   
 0.44272    0.35218    0.35218    0.35218    0.35218   
 0.49845    0.0097519  0.0097519  0.0097519  0.0097519 
 0.55418   -0.33386   -0.33386   -0.33386   -0.33386   
 0.6099    -0.63696   -0.63696   -0.63696   -0.63696   
 0.66563   -0.86276   -0.86276   -0.86276   -0.86276   
 0.72136   -0.98385   -0.98385   -0.98385   -0.98385   
 0.77709   -0.98555   -0.98555   -0.98555   -0.98555   
 0.83282   -0.86765   -0.86765   -0.86765   -0.86765   
 0.87461   -0.70883   -0.70883   -0.70883   -0.70883   
 0.91641   -0.50141   -0.50141   -0.50141   -0.50141   
 0.9582    -0.2596    -0.2596    -0.2596    -0.2596    
 0.9791    -0.13093   -0.13093   -0.13093   -0.13093   
 1.         14.E-15    13.E-15   -77.E-15    14.E-15   
#Freq       vm(1)      vm(2)      vm(3)      vm(in)     vp(1)      vp(2)      vp(3)      vp(in)    
 0.01       1.         1.         1.         1.         0.         0.         0.         0.        
 0.1        1.         1.         1.         1.         0.         0.         0.         0.        
 1.         1.         1.         1.         1.         0.         0.         1.2602f    0.        
 10.        1.         1.         1.         1.         0.         0.         0.         0.        
 100.       1.         1.         1.         1.         0.         0.         0.         0.        
Gnucap   System status
iterations: op=0, dc=0, tran=233, fourier=0, total=309
transient timesteps: accepted=64, rejected=7, total=71
nodes: user=4, subckt=0, model=10, total=14
dctran density=51.0%, ac density=20.4%
