va_laplace_zp #(.zr0(0.),.pr0(0.)) b0 (.out0(0),.out1(out1),.in0(in),.in1(0));
// not checked 
va_laplace_zp #(.zr0(0.),.pr0(1.)) b0 (.out0(0),.out1(out2),.in0(in),.in1(0));
va_laplace_zp #(.pr0(0.)) b0 (.out0(0),.out1(out3),.in0(in),.in1(0));
no data, assuming no root, constant 1.
#          
 0.        
va_laplace_zp #(.n0( 0.),.n1( 1.),.d0( 0.),.d1( 1.)) b0 (.out0(0),.out1(out1),.in0(in),.in1(0));
// not checked 
va_laplace_zp #(.n0( 0.),.n1( 1.),.d0( 1.),.d1(-1.)) b0 (.out0(0),.out1(out2),.in0(in),.in1(0));
va_laplace_zp #(.n0( 1.),.d0( 0.),.d1( 1.)) b0 (.out0(0),.out1(out3),.in0(in),.in1(0));
#Time       v(in)      v(out1)    v(out2)    v(out3)   
 0.         0.         0.         0.         0.        
 497.87E-9  3.1282E-6  3.1282E-6 -3.1282E-6  1.557E-12 
 766.39E-9  4.8154E-6  4.8154E-6 -4.8154E-6  2.624E-12 
 1.3841E-6  8.6966E-6  8.6966E-6 -8.6966E-6  6.797E-12 
 1.8403E-6  11.563E-6  11.563E-6 -11.563E-6  11.42E-12 
 59.176E-6  371.82E-6  371.82E-6 -371.83E-6  11.002E-9 
 521.47E-6  0.0032765  0.0032765 -0.0032773  854.3E-9  
 0.0025696  0.016144   0.016144  -0.016165   20.742E-6 
 0.0087266  0.054803   0.054803  -0.055043   239.15E-6 
 0.023522   0.14725    0.14725   -0.149      0.0017339 
 0.056071   0.34506    0.34506   -0.35501    0.0097461 
 0.08862    0.52849    0.52849   -0.55322    0.023963  
 0.14558    0.79239    0.79239   -0.85729    0.061582  
 0.20254    0.95587    0.95587   -1.0758     0.11137   
 0.2595     0.99822    0.99822   -1.1825     0.16703   
 0.31647    0.91406    0.91406   -1.1652     0.22149   
 0.37343    0.71406    0.71406   -1.0277     0.26786   
 0.43039    0.42357    0.42357   -0.78891    0.30026   
 0.51176   -0.073828  -0.073828  -0.33733    0.31449   
 0.59313   -0.55235   -0.55235    0.13287    0.28901   
 0.72876   -0.9911    -0.9911     0.62287    0.18435   
 0.86438   -0.75269   -0.75269    0.45774    0.066102  
 0.93219   -0.41329   -0.41329    0.13856    0.026569  
 1.         14.E-15    14.E-15   -0.27951    0.012556  
#Freq       vm(in)     vm(out1)   vm(out2)   vm(out3)   vp(in)     vp(out1)   vp(out2)   vp(out3)  
 0.01       1.         1.         0.062708   15.915     0.         0.         93.595    -90.       
 0.1        1.         1.         0.53202    1.5915     0.         0.         122.14    -90.       
 1.         1.         1.         0.98757    0.15915    0.         0.         170.96    -90.       
 10.        1.         1.         0.99987    0.015915   0.         0.         179.09    -90.       
 100.       1.         1.         1.         0.0015915  0.         0.         179.91    -90.       
Gnucap   System status
iterations: op=0, dc=3, tran=84, fourier=0, total=120
transient timesteps: accepted=24, rejected=4, total=28
nodes: user=6, subckt=0, model=7, total=13
dctran density=49.1%, ac density=21.9%
