//va_laplace_nd #() a(1,2,3,4); 
va_laplace_nd #(.n0(1),.n1(0),.n2(0),.d0(1),.d1(0),.d2(0)) b0 (.out0(0),.out1(1),.in0(in),.in1(0));
va_laplace_nd #(.n0(.1),.n1(1),.n2(0),.d0(.1),.d1(1),.d2(0)) b1 (.out0(0),.out1(2),.in0(in),.in1(0));
va_laplace_nd #(.n0(.1),.n1(1),.n2(1.000001),.d0(.1),.d1(1),.d2(1.000001)) b2 (.out0(0),.out1(3),.in0(in),.in1(0));
vsine #(.freq(1),.ampl(1)) v1 (.p(in),.n(0));
resistor #(.r(1)) r1 (.p(1),.n(0));
resistor #(.r(1)) r1 (.p(2),.n(0));
resistor #(.r(1)) r1 (.p(3),.n(0));
#Time       v(1)       v(2)       v(3)       v(in)     
 0.         0.         0.         0.         0.        
 2.E-9      12.566E-9  12.566E-9  12.566E-9  12.566E-9 
 3.1E-9     19.478E-9  19.478E-9  19.478E-9  19.478E-9 
 4.2E-9     26.389E-9  26.389E-9  26.389E-9  26.389E-9 
 5.3E-9     33.301E-9  33.301E-9  33.301E-9  33.301E-9 
 28.551E-6  179.39E-6  179.39E-6  179.39E-6  179.39E-6 
 73.219E-6  460.05E-6  460.05E-6  460.05E-6  460.05E-6 
 117.89E-6  740.7E-6   740.7E-6   740.7E-6   740.7E-6  
 162.55E-6  0.0010214  0.0010214  0.0010214  0.0010214 
 207.22E-6  0.001302   0.001302   0.001302   0.001302  
 251.89E-6  0.0015827  0.0015827  0.0015827  0.0015827 
 296.56E-6  0.0018633  0.0018633  0.0018633  0.0018633 
 368.29E-6  0.002314   0.002314   0.002314   0.002314  
 440.02E-6  0.0027647  0.0027647  0.0027647  0.0027647 
 549.02E-6  0.0034496  0.0034496  0.0034496  0.0034496 
 658.02E-6  0.0041345  0.0041345  0.0041345  0.0041345 
 767.03E-6  0.0048194  0.0048194  0.0048194  0.0048194 
 952.24E-6  0.0059831  0.0059831  0.0059831  0.0059831 
 0.0011375  0.0071468  0.0071468  0.0071468  0.0071468 
 0.0014199  0.0089211  0.0089211  0.0089211  0.0089211 
 0.0017023  0.010695   0.010695   0.010695   0.010695  
 0.0019847  0.01247    0.01247    0.01247    0.01247   
 0.002464   0.015481   0.015481   0.015481   0.015481  
 0.0029434  0.018493   0.018493   0.018493   0.018493  
 0.0036744  0.023085   0.023085   0.023085   0.023085  
 0.0044053  0.027676   0.027676   0.027676   0.027676  
 0.0051363  0.032267   0.032267   0.032267   0.032267  
 0.0063768  0.040056   0.040056   0.040056   0.040056  
 0.0076173  0.047842   0.047842   0.047842   0.047842  
 0.0095075  0.059702   0.059702   0.059702   0.059702  
 0.011398   0.071553   0.071553   0.071553   0.071553  
 0.013288   0.083394   0.083394   0.083394   0.083394  
 0.016502   0.1035     0.1035     0.1035     0.1035    
 0.019716   0.12356    0.12356    0.12356    0.12356   
 0.024618   0.15406    0.15406    0.15406    0.15406   
 0.029519   0.18441    0.18441    0.18441    0.18441   
 0.03442    0.21459    0.21459    0.21459    0.21459   
 0.042817   0.26579    0.26579    0.26579    0.26579   
 0.051213   0.31626    0.31626    0.31626    0.31626   
 0.064035   0.39157    0.39157    0.39157    0.39157   
 0.076856   0.46435    0.46435    0.46435    0.46435   
 0.096497   0.56984    0.56984    0.56984    0.56984   
 0.11614    0.66666    0.66666    0.66666    0.66666   
 0.14662    0.79634    0.79634    0.79634    0.79634   
 0.17709    0.8969     0.8969     0.8969     0.8969    
 0.20757    0.96468    0.96468    0.96468    0.96468   
 0.23805    0.99718    0.99718    0.99718    0.99718   
 0.26853    0.99323    0.99323    0.99323    0.99323   
 0.29004    0.96852    0.96852    0.96852    0.96852   
 0.32231    0.89854    0.89854    0.89854    0.89854   
 0.35458    0.79175    0.79175    0.79175    0.79175   
 0.40423    0.56607    0.56607    0.56607    0.56607   
 0.45388    0.28575    0.28575    0.28575    0.28575   
 0.50353   -0.022154  -0.022154  -0.022154  -0.022154  
 0.55317   -0.32792   -0.32792   -0.32792   -0.32792   
 0.60282   -0.60203   -0.60203   -0.60203   -0.60203   
 0.65247   -0.81804   -0.81804   -0.81804   -0.81804   
 0.70212   -0.95508   -0.95508   -0.95508   -0.95508   
 0.75176   -0.99994   -0.99994   -0.99994   -0.99994   
 0.80141   -0.94828   -0.94828   -0.94828   -0.94828   
 0.85106   -0.80509   -0.80509   -0.80509   -0.80509   
 0.90071   -0.58419   -0.58419   -0.58419   -0.58419   
 0.95035   -0.30691   -0.30691   -0.30691   -0.30691   
 0.97518   -0.15534   -0.15534   -0.15534   -0.15534   
 1.         14.E-15    13.E-15   -78.E-15    14.E-15   
#Freq       vm(1)      vm(2)      vm(3)      vm(in)     vp(1)      vp(2)      vp(3)      vp(in)    
 0.01       1.         1.         1.         1.         0.         0.         0.         0.        
 0.1        1.         1.         1.         1.         0.         0.         0.         0.        
 1.         1.         1.         1.         1.         0.         0.         1.2602f    0.        
 10.        1.         1.         1.         1.         0.         0.         0.         0.        
 100.       1.         1.         1.         1.         0.         0.         0.         0.        
Gnucap   System status
iterations: op=0, dc=0, tran=239, fourier=0, total=316
transient timesteps: accepted=65, rejected=7, total=72
nodes: user=4, subckt=0, model=10, total=14
dctran density=51.0%, ac density=20.4%
