va_laplace_zp #(.zr0(0.),.pr0(0.)) b0 (.out0(0),.out1(out1),.in0(in),.in1(0));
// not checked 
va_laplace_zp #(.zr0(0.),.pr0(1.)) b0 (.out0(0),.out1(out2),.in0(in),.in1(0));
va_laplace_zp #(.pr0(0.)) b0 (.out0(0),.out1(out3),.in0(in),.in1(0));
no data, assuming no root, constant 1.
#          
 0.        
va_laplace_zp #(.n0( 0.),.n1( 1.),.d0( 0.),.d1( 1.)) b0 (.out0(0),.out1(out1),.in0(in),.in1(0));
// not checked 
va_laplace_zp #(.n0( 0.),.n1( 1.),.d0( 1.),.d1(-1.)) b0 (.out0(0),.out1(out2),.in0(in),.in1(0));
va_laplace_zp #(.n0( 1.),.d0( 0.),.d1( 1.)) b0 (.out0(0),.out1(out3),.in0(in),.in1(0));
#Time       v(in)      v(out1)    v(out2)    v(out3)   
 0.         0.         0.         0.         0.        
 482.25E-9  3.0301E-6  3.0301E-6 -3.0301E-6  1.461E-12 
 759.47E-9  4.7719E-6  4.7719E-6 -4.7719E-6  2.543E-12 
 1.3647E-6  8.5744E-6  8.5744E-6 -8.5745E-6  6.581E-12 
 1.8222E-6  11.449E-6  11.449E-6 -11.449E-6  11.16E-12 
 58.431E-6  367.13E-6  367.13E-6 -367.14E-6  10.727E-9 
 516.91E-6  0.0032478  0.0032478 -0.0032487  839.42E-9 
 0.0025525  0.016037   0.016037  -0.016058   20.468E-6 
 0.0086718  0.05446    0.05446   -0.054697   236.16E-6 
 0.02325    0.14557    0.14557   -0.14728    0.0016942 
 0.055809   0.34351    0.34351   -0.35337    0.009656  
 0.088367   0.52713    0.52713   -0.55173    0.023829  
 0.14534    0.79148    0.79148   -0.85618    0.061395  
 0.20232    0.95546    0.95546   -1.0752     0.11116   
 0.2593     0.99829    0.99829   -1.1823     0.16682   
 0.31628    0.91454    0.91454   -1.1655     0.22132   
 0.37325    0.71483    0.71483   -1.0282     0.26773   
 0.43023    0.42448    0.42448   -0.78968    0.30019   
 0.51163   -0.072978  -0.072978  -0.33813    0.3145    
 0.59302   -0.55176   -0.55176    0.13227    0.28907   
 0.72868   -0.99104   -0.99104    0.62277    0.18442   
 0.86434   -0.75285   -0.75285    0.45787    0.066136  
 0.93217   -0.4134    -0.4134     0.13866    0.026583  
 1.         14.E-15    14.E-15   -0.27952    0.012562  
#Freq       vm(in)     vm(out1)   vm(out2)   vm(out3)   vp(in)     vp(out1)   vp(out2)   vp(out3)  
 0.01       1.         1.         0.062708   15.915     0.         0.         93.595    -90.       
 0.1        1.         1.         0.53202    1.5915     0.         0.         122.14    -90.       
 1.         1.         1.         0.98757    0.15915    0.         0.         170.96    -90.       
 10.        1.         1.         0.99987    0.015915   0.         0.         179.09    -90.       
 100.       1.         1.         1.         0.0015915  0.         0.         179.91    -90.       
Gnucap   System status
iterations: op=0, dc=3, tran=84, fourier=0, total=120
transient timesteps: accepted=24, rejected=4, total=28
nodes: user=6, subckt=0, model=7, total=13
dctran density=49.1%, ac density=21.9%
