//va_laplace_nd #() a(1,2,3,4); 
va_laplace_nd #(.n0(1),.d0(1)) b0 (.out0(0),.out1(1),.in0(in),.in1(0));
va_laplace_nd #(.n0(1),.n1(1),.d0(1),.d1(1)) b1 (.out0(0),.out1(2),.in0(in),.in1(0));
va_laplace_nd #(.n0(1),.n1(1),.n2(1),.d0(1),.d1(1),.d2(1)) b1 (.out0(0),.out1(3),.in0(in),.in1(0));
vsine #(.freq(1),.ampl(1)) v1 (.p(in),.n(0));
resistor #(.r(1)) r1 (.p(1),.n(0));
resistor #(.r(1)) r1 (.p(2),.n(0));
resistor #(.r(1)) r1 (.p(3),.n(0));
#Time       v(1)       v(2)       v(3)       v(in)     
 0.         0.         0.         0.         0.        
 497.87E-9  3.1282E-6  3.1282E-6  3.1282E-6  3.1282E-6 
 766.39E-9  4.8154E-6  4.8154E-6  4.8154E-6  4.8154E-6 
 1.3841E-6  8.6966E-6  8.6966E-6  8.6966E-6  8.6966E-6 
 1.8403E-6  11.563E-6  11.563E-6  11.563E-6  11.563E-6 
 56.698E-6  356.24E-6  356.24E-6  356.24E-6  356.24E-6 
 111.56E-6  700.92E-6  700.92E-6  700.92E-6  700.92E-6 
 166.41E-6  0.0010456  0.0010456  0.0010456  0.0010456 
 221.27E-6  0.0013903  0.0013903  0.0013903  0.0013903 
 276.13E-6  0.001735   0.001735   0.001735   0.001735  
 330.99E-6  0.0020796  0.0020796  0.0020796  0.0020796 
 385.84E-6  0.0024243  0.0024243  0.0024243  0.0024243 
 479.15E-6  0.0030106  0.0030106  0.0030106  0.0030106 
 572.46E-6  0.0035969  0.0035969  0.0035969  0.0035969 
 714.65E-6  0.0044902  0.0044902  0.0044902  0.0044902 
 856.83E-6  0.0053836  0.0053836  0.0053836  0.0053836 
 999.02E-6  0.006277   0.006277   0.006277   0.006277  
 0.0012403  0.0077927  0.0077927  0.0077927  0.0077927 
 0.0014815  0.0093085  0.0093085  0.0093085  0.0093085 
 0.0018493  0.011619   0.011619   0.011619   0.011619  
 0.0022171  0.01393    0.01393    0.01393    0.01393   
 0.0025848  0.01624    0.01624    0.01624    0.01624   
 0.003209   0.020161   0.020161   0.020161   0.020161  
 0.0038332  0.024082   0.024082   0.024082   0.024082  
 0.0047846  0.030058   0.030058   0.030058   0.030058  
 0.0057361  0.036033   0.036033   0.036033   0.036033  
 0.0066875  0.042007   0.042007   0.042007   0.042007  
 0.0083027  0.052144   0.052144   0.052144   0.052144  
 0.0099178  0.062275   0.062275   0.062275   0.062275  
 0.012381   0.077712   0.077712   0.077712   0.077712  
 0.014844   0.09313    0.09313    0.09313    0.09313   
 0.017306   0.10853    0.10853    0.10853    0.10853   
 0.021488   0.1346     0.1346     0.1346     0.1346    
 0.02567    0.16059    0.16059    0.16059    0.16059   
 0.03208    0.2002     0.2002     0.2002     0.2002    
 0.03849    0.23949    0.23949    0.23949    0.23949   
 0.048105   0.29767    0.29767    0.29767    0.29767   
 0.05772    0.35477    0.35477    0.35477    0.35477   
 0.072217   0.43834    0.43834    0.43834    0.43834   
 0.086713   0.51828    0.51828    0.51828    0.51828   
 0.10899    0.63252    0.63252    0.63252    0.63252   
 0.13126    0.73438    0.73438    0.73438    0.73438   
 0.16601    0.86397    0.86397    0.86397    0.86397   
 0.20076    0.95253    0.95253    0.95253    0.95253   
 0.26224    0.99704    0.99704    0.99704    0.99704   
 0.32372    0.89462    0.89462    0.89462    0.89462   
 0.3852     0.66036    0.66036    0.66036    0.66036   
 0.44668    0.32878    0.32878    0.32878    0.32878   
 0.50816   -0.051259  -0.051259  -0.051259  -0.051259  
 0.60653   -0.62047   -0.62047   -0.62047   -0.62047   
 0.7049    -0.96011   -0.96011   -0.96011   -0.96011   
 0.80326   -0.94452   -0.94452   -0.94452   -0.94452   
 0.85245   -0.79988   -0.79988   -0.79988   -0.79988   
 0.90163   -0.57946   -0.57946   -0.57946   -0.57946   
 0.95082   -0.30414   -0.30414   -0.30414   -0.30414   
 1.         14.E-15    108.E-15  -71.E-15    14.E-15   
#Freq       vm(1)      vm(2)      vm(3)      vm(in)     vp(1)      vp(2)      vp(3)      vp(in)    
 0.01       1.         1.         1.         1.         0.         0.         0.         0.        
 0.1        1.         1.         1.         1.         0.         0.         0.         0.        
 1.         1.         1.         1.         1.         0.         0.         0.         0.        
 10.        1.         1.         1.         1.         0.         0.         0.         0.        
 100.       1.         1.         1.         1.         0.         0.         0.         0.        
//va_laplace_nd #() a(1,2,3,4); 
va_laplace_nd #(.n0(1),.d0(1)) b0 (.out0(0),.out1(1),.in0(in),.in1(0));
va_laplace_nd #(.n0(1),.n1(1),.d0(1),.d1(1)) b1 (.out0(0),.out1(2),.in0(in),.in1(0));
va_laplace_nd #(.n0(1),.n1(1),.n2(1),.d0(1),.d1(1),.d2(1)) b1 (.out0(0),.out1(3),.in0(in),.in1(0));
vsine #(.freq(1),.ampl(1)) v1 (.p(in),.n(0));
resistor #(.r(1)) r1 (.p(1),.n(0));
resistor #(.r(1)) r1 (.p(2),.n(0));
resistor #(.r(1)) r1 (.p(3),.n(0));
Gnucap   System status
iterations: op=0, dc=0, tran=180, fourier=0, total=245
transient timesteps: accepted=56, rejected=4, total=60
nodes: user=4, subckt=0, model=7, total=11
dctran density=53.7%, ac density=25.6%
