va_laplace #(.rr0(2)) b0 (.out0(0),.out1(out1),.in0(in),.in1(0));
// va_laplace #(.pr0(1.)) b0(0,out2,in,0); // incomplete 
va_laplace #(.rr0(1.),.pr0(1.)) b0 (.out0(0),.out1(out3),.in0(in),.in1(0));
va_laplace #(.rr0(1.),.rr1(1.),.pr0(1.),.pr1(2.)) b0 (.out0(0),.out1(out4),.in0(in),.in1(0));
resistor #(.r(1.)) r1 (.p(out1),.n(0));
resistor #(.r(1.)) r2 (.p(out2),.n(0));
resistor #(.r(1.)) r3 (.p(out3),.n(0));
resistor #(.r(1.)) r4 (.p(out4),.n(0));
#          
 0.        
va_laplace #(.n0( 2.),.d0( 0.),.d1( 1.)) b0 (.out0(0),.out1(out1),.in0(in),.in1(0));
// va_laplace #(.pr0(1.)) b0(0,out2,in,0); // incomplete 
va_laplace #(.n0( 1.),.d0(-1.),.d1( 1.)) b0 (.out0(0),.out1(out3),.in0(in),.in1(0));
va_laplace #(.n0(-3.),.n1( 2.),.d0( 2.),.d1(-3.),.d2( 1.)) b0 (.out0(0),.out1(out4),.in0(in),.in1(0));
resistor #(.r(1.)) r1 (.p(out1),.n(0));
resistor #(.r(1.)) r2 (.p(out2),.n(0));
resistor #(.r(1.)) r3 (.p(out3),.n(0));
resistor #(.r(1.)) r4 (.p(out4),.n(0));
#Time       v(in)      v(out1)    v(out2)    v(out3)    v(out4)   
 0.         0.         0.         0.         0.         0.        
 482.25E-9  3.0301E-6  2.923E-12  0.         1.461E-12 -2.0201E-6 
 759.47E-9  4.7719E-6  5.085E-12  0.         2.543E-12 -3.1813E-6 
 1.3647E-6  8.5744E-6  13.16E-12  0.         6.581E-12 -5.7163E-6 
 1.8222E-6  11.449E-6  22.32E-12  0.         11.16E-12 -7.6328E-6 
 58.431E-6  367.13E-6  21.454E-9  0.         10.727E-9 -244.75E-6 
 516.91E-6  0.0032478  1.6788E-6  0.         839.61E-9 -0.0021649 
 0.0025525  0.016037   40.936E-6  0.         20.49E-6  -0.010685  
 0.0086718  0.05446    472.33E-6  0.         236.97E-6 -0.036227  
 0.02325    0.14557    0.0033884  0.         0.0017092 -0.096474  
 0.055809   0.34351    0.019312   0.         0.0098593 -0.22572   
 0.088367   0.52713    0.047659   0.         0.024594  -0.34323   
 0.14534    0.79148    0.12279    0.         0.064703  -0.50608   
 0.20232    0.95546    0.22232    0.         0.11972   -0.59707   
 0.2593     0.99829    0.33364    0.         0.18404   -0.60418   
 0.31628    0.91454    0.44263    0.         0.25092   -0.52605   
 0.37325    0.71483    0.53547    0.         0.31342   -0.37208   
 0.43023    0.42448    0.60038    0.         0.36521   -0.16125   
 0.51163   -0.072978   0.62899    0.         0.41111    0.18569   
 0.59302   -0.55176    0.57814    0.         0.41949    0.50767   
 0.72868   -0.99104    0.36885    0.         0.36827    0.78345   
 0.86434   -0.75285    0.13227    0.         0.29497    0.60022   
 0.93217   -0.4134     0.053166   0.         0.27474    0.36718   
 1.         14.E-15    0.025125   0.         0.27952    0.093173  
#Freq       vm(in)     vm(out1)   vm(out2)   vm(out3)   vm(out4)   vp(in)     vp(out1)   vp(out2)   vp(out3)   vp(out4)  
 0.01       1.         31.831     0.         0.99803    1.4976     0.        -90.        0.        -176.4     -177.      
 0.1        1.         3.1831     0.         0.84673    1.3137     0.        -90.        0.        -147.86    -153.15    
 1.         1.         0.31831    0.         0.15718    0.30796    0.        -90.        0.        -99.043    -103.27    
 10.        1.         0.031831   0.         0.015913   0.03182    0.        -90.        0.        -90.912    -91.367    
 100.       1.         0.0031831  0.         0.0015915  0.0031831  0.        -90.        0.        -90.091    -90.137    
Gnucap   System status
iterations: op=0, dc=3, tran=84, fourier=0, total=120
transient timesteps: accepted=24, rejected=4, total=28
nodes: user=8, subckt=0, model=8, total=16
dctran density=41.4%, ac density=17.2%
