#Time       v(1)       v(2)       v(3)       v(in)     
 0.         0.         0.         0.         0.        
 120.56E-9  0.         0.         0.         757.52E-9 
 675.E-9    0.         0.         0.         4.2412E-6 
 960.28E-9  0.         0.         0.         6.0336E-6 
 1.4532E-6  0.         0.         0.         9.131E-6  
 35.036E-6  65.E-15    65.E-15    0.         220.14E-6 
 68.619E-6  378.E-15   378.E-15   0.         431.15E-6 
 102.2E-6   1.177E-12  1.177E-12  0.         642.15E-6 
 135.78E-6  2.701E-12  2.701E-12  0.         853.16E-6 
 169.37E-6  5.186E-12  5.186E-12  0.         0.0010642 
 202.95E-6  8.872E-12  8.872E-12  0.         0.0012752 
 236.53E-6  13.99E-12  13.99E-12  0.         0.0014862 
 293.73E-6  26.77E-12  26.77E-12  0.         0.0018456 
 350.94E-6  45.59E-12  45.59E-12  0.         0.002205  
 438.11E-6  88.72E-12  88.72E-12  0.         0.0027527 
 525.29E-6  152.8E-12  152.8E-12  0.         0.0033005 
 612.46E-6  241.9E-12  241.9E-12  0.         0.0038482 
 760.37E-6  463.3E-12  463.3E-12  0.         0.0047775 
 908.27E-6  789.E-12   789.E-12   0.         0.0057068 
 0.0011338  1.5362E-9  1.5362E-9  0.         0.0071238 
 0.0013593  2.6452E-9  2.6452E-9  0.         0.0085408 
 0.0015849  4.1881E-9  4.1881E-9  0.         0.0099578 
 0.0019677  8.0221E-9  8.0221E-9  0.         0.012363  
 0.0023505  13.664E-9  13.664E-9  0.         0.014768  
 0.0029343  26.602E-9  26.602E-9  0.         0.018436  
 0.003518   45.803E-9  45.803E-9  0.         0.022103  
 0.0041018  72.509E-9  72.509E-9  0.         0.02577   
 0.0050927  138.85E-9  138.85E-9  0.         0.031993  
 0.0060837  236.45E-9  236.45E-9  0.         0.038216  
 0.0075965  460.44E-9  460.44E-9  0.         0.047712  
 0.0091093  792.77E-9  792.77E-9  0.         0.057204  
 0.010622   1.2548E-6  1.2548E-6  0.         0.066691  
 0.013192   2.4027E-6  2.4027E-6  0.         0.082792  
 0.015762   4.0901E-6  4.0901E-6  0.         0.098872  
 0.019699   7.974E-6   7.974E-6   0.         0.12345   
 0.023636   13.733E-6  13.733E-6  0.         0.14796   
 0.027573   21.73E-6   21.73E-6   0.         0.17238   
 0.034279   41.62E-6   41.62E-6   0.         0.21372   
 0.040985   70.785E-6  70.785E-6  0.         0.25468   
 0.051297   137.91E-6  137.91E-6  0.         0.31676   
 0.061609   236.94E-6  236.94E-6  0.         0.37751   
 0.077249   461.57E-6  461.57E-6  0.         0.46654   
 0.092889   791.13E-6  791.13E-6  0.         0.55106   
 0.11741    0.0015612  0.0015612  0.         0.67257   
 0.14192    0.0026848  0.0026848  0.         0.77815   
 0.18093    0.005306   0.005306   0.         0.90729   
 0.21993    0.0090225  0.0090225  0.         0.9822    
 0.27993    0.016858   0.016858   0.         0.98236   
 0.33994    0.026907   0.026907   0.         0.84453   
 0.39995    0.038402   0.038402   0.         0.58806   
 0.45995    0.050261   0.050261   0.         0.24899   
 0.54996    0.065876   0.065876   0.        -0.30877   
 0.63997    0.075838   0.075838   0.        -0.77038   
 0.72998    0.077777   0.077777   0.        -0.9921    
 0.78398    0.074821   0.074821   0.        -0.97729   
 0.83799    0.069131   0.069131   0.        -0.85104   
 0.89199    0.061357   0.061357   0.        -0.62774   
 0.946      0.052354   0.052354   0.        -0.33285   
 1.         0.043089   0.043089   0.         14.E-15   
va_laplace_nd #(.n0(1),.d0(2),.d1(2),.d2(1)) b1 (.out0(0),.out1(2),.in0(in),.in1(0));
va_laplace_np #(.n0(.5),.d0( 1.),.d1( 1.),.d2( 0.5)) b0 (.out0(0),.out1(1),.in0(in),.in1(0));
vsine #(.freq(1),.ampl(1)) v1 (.p(in),.n(0));
resistor #(.r(1)) r1 (.p(1),.n(0));
resistor #(.r(1)) r1 (.p(2),.n(0));
resistor #(.r(1)) r1 (.p(3),.n(0));
#Freq       vm(1)      vm(2)      vm(3)      vm(in)     vp(1)      vp(2)      vp(3)      vp(in)    
 0.01       0.5        0.5        0.         1.        -3.6024    -3.6024     0.         0.        
 0.1        0.49053    0.49053    0.         1.        -38.055    -38.055     0.         0.        
 1.         0.025298   0.025298   0.         1.        -161.46    -161.46     0.         0.        
 10.        253.3u     253.3u     0.         1.        -178.18    -178.18     0.         0.        
 100.       2.533u     2.533u     0.         1.        -179.82    -179.82     0.         0.        
va_laplace_nd #(.n0(1),.d0(2),.d1(2),.d2(1)) b1 (.out0(0),.out1(2),.in0(in),.in1(0));
va_laplace_np #(.n0(.5),.d0( 1.),.d1( 1.),.d2( 0.5)) b0 (.out0(0),.out1(1),.in0(in),.in1(0));
vsine #(.freq(1),.ampl(1)) v1 (.p(in),.n(0));
resistor #(.r(1)) r1 (.p(1),.n(0));
resistor #(.r(1)) r1 (.p(2),.n(0));
resistor #(.r(1)) r1 (.p(3),.n(0));
Gnucap   System status
iterations: op=0, dc=0, tran=192, fourier=0, total=261
transient timesteps: accepted=59, rejected=5, total=64
nodes: user=4, subckt=0, model=7, total=11
dctran density=48.8%, ac density=25.6%
