#Time       v(1)       v(2)       v(3)       v(in)     
 0.         0.         0.         0.         0.        
 134.26E-9  0.         0.         0.         843.59E-9 
 632.13E-9  0.         0.         0.         3.9718E-6 
 923.46E-9  0.         0.         0.         5.8023E-6 
 1.3827E-6  0.         0.         0.         8.688E-6  
 34.169E-6  60.E-15    60.E-15    0.         214.69E-6 
 66.954E-6  351.E-15   351.E-15   0.         420.69E-6 
 99.74E-6   1.094E-12  1.094E-12  0.         626.69E-6 
 132.53E-6  2.511E-12  2.511E-12  0.         832.68E-6 
 165.31E-6  4.823E-12  4.823E-12  0.         0.0010387 
 198.1E-6   8.251E-12  8.251E-12  0.         0.0012447 
 230.88E-6  13.02E-12  13.02E-12  0.         0.0014507 
 286.72E-6  24.9E-12   24.9E-12   0.         0.0018015 
 342.55E-6  42.4E-12   42.4E-12   0.         0.0021523 
 427.65E-6  82.52E-12  82.52E-12  0.         0.002687  
 512.75E-6  142.1E-12  142.1E-12  0.         0.0032217 
 597.85E-6  225.E-12   225.E-12   0.         0.0037564 
 742.23E-6  430.9E-12  430.9E-12  0.         0.0046635 
 886.61E-6  733.9E-12  733.9E-12  0.         0.0055707 
 0.0011067  1.4288E-9  1.4288E-9  0.         0.0069537 
 0.0013268  2.4601E-9  2.4601E-9  0.         0.0083367 
 0.001547   3.8949E-9  3.8949E-9  0.         0.0097197 
 0.0019206  7.4604E-9  7.4604E-9  0.         0.012067  
 0.0022943  12.708E-9  12.708E-9  0.         0.014415  
 0.0028641  24.739E-9  24.739E-9  0.         0.017995  
 0.0034339  42.596E-9  42.596E-9  0.         0.021574  
 0.0040037  67.433E-9  67.433E-9  0.         0.025153  
 0.0049716  129.19E-9  129.19E-9  0.         0.031232  
 0.0059395  220.06E-9  220.06E-9  0.         0.037311  
 0.0074166  428.54E-9  428.54E-9  0.         0.046583  
 0.0088937  737.88E-9  737.88E-9  0.         0.055851  
 0.010371   1.168E-6   1.168E-6   0.         0.065115  
 0.012882   2.238E-6   2.238E-6   0.         0.080855  
 0.015394   3.8114E-6  3.8114E-6  0.         0.096574  
 0.01924    7.4323E-6  7.4323E-6  0.         0.1206    
 0.023086   12.802E-6  12.802E-6  0.         0.14455   
 0.026933   20.26E-6   20.26E-6   0.         0.16842   
 0.033507   38.893E-6  38.893E-6  0.         0.20898   
 0.040082   66.249E-6  66.249E-6  0.         0.24919   
 0.050187   129.25E-6  129.25E-6  0.         0.31013   
 0.060291   222.28E-6  222.28E-6  0.         0.36982   
 0.075696   434.87E-6  434.87E-6  0.         0.45788   
 0.091101   747.55E-6  747.55E-6  0.         0.54166   
 0.11502    0.0014715  0.0014715  0.         0.6614    
 0.13894    0.0025274  0.0025274  0.         0.76624   
 0.17808    0.0050784  0.0050784  0.         0.89962   
 0.21722    0.0087277  0.0087277  0.         0.97886   
 0.27743    0.016481   0.016481   0.         0.98518   
 0.33764    0.026486   0.026486   0.         0.85217   
 0.39786    0.037983   0.037983   0.         0.59862   
 0.45807    0.049888   0.049888   0.         0.2604    
 0.54839    0.065627   0.065627   0.        -0.2994    
 0.63872    0.075733   0.075733   0.        -0.76534   
 0.72904    0.077783   0.077783   0.        -0.99134   
 0.78323    0.074865   0.074865   0.        -0.97828   
 0.83742    0.069187   0.069187   0.        -0.8529    
 0.89161    0.061402   0.061402   0.        -0.62957   
 0.94581    0.052373   0.052373   0.        -0.33396   
 1.         0.043077   0.043077   0.         14.E-15   
va_laplace_nd #(.n0(1),.d0(2),.d1(2),.d2(1)) b1 (.out0(0),.out1(2),.in0(in),.in1(0));
va_laplace_np #(.n0(.5),.d0( 1.),.d1( 1.),.d2( 0.5)) b0 (.out0(0),.out1(1),.in0(in),.in1(0));
vsine #(.freq(1),.ampl(1)) v1 (.p(in),.n(0));
resistor #(.r(1)) r1 (.p(1),.n(0));
resistor #(.r(1)) r1 (.p(2),.n(0));
resistor #(.r(1)) r1 (.p(3),.n(0));
#Freq       vm(1)      vm(2)      vm(3)      vm(in)     vp(1)      vp(2)      vp(3)      vp(in)    
 0.01       0.5        0.5        0.         1.        -3.6024    -3.6024     0.         0.        
 0.1        0.49053    0.49053    0.         1.        -38.055    -38.055     0.         0.        
 1.         0.025298   0.025298   0.         1.        -161.46    -161.46     0.         0.        
 10.        253.3u     253.3u     0.         1.        -178.18    -178.18     0.         0.        
 100.       2.533u     2.533u     0.         1.        -179.82    -179.82     0.         0.        
va_laplace_nd #(.n0(1),.d0(2),.d1(2),.d2(1)) b1 (.out0(0),.out1(2),.in0(in),.in1(0));
va_laplace_np #(.n0(.5),.d0( 1.),.d1( 1.),.d2( 0.5)) b0 (.out0(0),.out1(1),.in0(in),.in1(0));
vsine #(.freq(1),.ampl(1)) v1 (.p(in),.n(0));
resistor #(.r(1)) r1 (.p(1),.n(0));
resistor #(.r(1)) r1 (.p(2),.n(0));
resistor #(.r(1)) r1 (.p(3),.n(0));
Gnucap   System status
iterations: op=0, dc=0, tran=192, fourier=0, total=261
transient timesteps: accepted=59, rejected=5, total=64
nodes: user=4, subckt=0, model=7, total=11
dctran density=48.8%, ac density=25.6%
