va_laplace #(.rr0(2)) b0 (.out0(0),.out1(out1),.in0(in),.in1(0));
va_laplace_nd #(.n0( 2.),.d0( 0.),.d1( 1.)) b0 (.out0(0),.out1(ref1),.in0(in),.in1(0));
va_laplace #(.pr0(1.)) b0 (.out0(0),.out1(out2),.in0(in),.in1(0));
va_laplace #(.rr0(1.),.pr0(1.)) b0 (.out0(0),.out1(out3),.in0(in),.in1(0));
va_laplace_nd #(.n0( 1.),.d0( -1.),.d1( 1.)) b0 (.out0(0),.out1(ref3),.in0(in),.in1(0));
va_laplace #(.rr0(1.),.rr1(1.),.pr0(1.),.pr1(2.)) b0 (.out0(0),.out1(out4),.in0(in),.in1(0));
va_laplace_nd #(.n0(-3.),.n1( 2.),.d0( 2.),.d1(-3.),.d2( 1.)) b0 (.out0(0),.out1(ref4),.in0(in),.in1(0));
resistor #(.r(1.)) r1 (.p(out1),.n(0));
resistor #(.r(1.)) r2 (.p(out2),.n(0));
resistor #(.r(1.)) r3 (.p(out3),.n(0));
resistor #(.r(1.)) r4 (.p(out4),.n(0));
resistor #(.r(1.)) r1 (.p(ref1),.n(0));
resistor #(.r(1.)) r2 (.p(ref2),.n(0));
resistor #(.r(1.)) r3 (.p(ref3),.n(0));
resistor #(.r(1.)) r4 (.p(ref4),.n(0));
#          
 0.        
va_laplace #(.n0( 2.),.d0( 0.),.d1( 1.)) b0 (.out0(0),.out1(out1),.in0(in),.in1(0));
va_laplace_nd #(.n0( 2.),.d0( 0.),.d1( 1.)) b0 (.out0(0),.out1(ref1),.in0(in),.in1(0));
va_laplace #(.n0( 0.),.d0(-1.),.d1( 1.)) b0 (.out0(0),.out1(out2),.in0(in),.in1(0));
va_laplace #(.n0( 1.),.d0(-1.),.d1( 1.)) b0 (.out0(0),.out1(out3),.in0(in),.in1(0));
va_laplace_nd #(.n0( 1.),.d0( -1.),.d1( 1.)) b0 (.out0(0),.out1(ref3),.in0(in),.in1(0));
va_laplace #(.n0(-3.),.n1( 2.),.d0( 2.),.d1(-3.),.d2( 1.)) b0 (.out0(0),.out1(out4),.in0(in),.in1(0));
va_laplace_nd #(.n0(-3.),.n1( 2.),.d0( 2.),.d1(-3.),.d2( 1.)) b0 (.out0(0),.out1(ref4),.in0(in),.in1(0));
resistor #(.r(1.)) r1 (.p(out1),.n(0));
resistor #(.r(1.)) r2 (.p(out2),.n(0));
resistor #(.r(1.)) r3 (.p(out3),.n(0));
resistor #(.r(1.)) r4 (.p(out4),.n(0));
resistor #(.r(1.)) r1 (.p(ref1),.n(0));
resistor #(.r(1.)) r2 (.p(ref2),.n(0));
resistor #(.r(1.)) r3 (.p(ref3),.n(0));
resistor #(.r(1.)) r4 (.p(ref4),.n(0));
#Time       v(in)      v(out1)    v(out2)    v(out3)    v(out4)    v(ref1)    v(ref2)    v(ref3)    v(ref4)   
 0.         0.         0.         0.         0.         0.         0.         0.         0.         0.        
 80.376E-9  505.01E-9  81.E-15    0.         41.E-15    81.E-15    81.E-15    0.         41.E-15    81.E-15   
 265.19E-9  1.6662E-6  482.E-15   0.         241.E-15   482.E-15   482.E-15   0.         241.E-15   482.E-15  
 450.E-9    2.8274E-6  1.313E-12  0.         656.E-15   1.313E-12  1.313E-12  0.         656.E-15   1.313E-12 
 730.44E-9  4.5895E-6  3.393E-12  0.         1.696E-12  3.393E-12  3.393E-12  0.         1.696E-12  3.393E-12 
 24.738E-6  155.43E-6  3.8451E-9  0.         1.9226E-9  3.8451E-9  3.8451E-9  0.         1.9226E-9  3.8451E-9 
 48.745E-6  306.27E-6  14.929E-9  0.         7.4648E-9  14.93E-9   14.929E-9  0.         7.4648E-9  14.93E-9  
 87.69E-6   550.97E-6  48.315E-9  0.         24.158E-9  48.317E-9  48.315E-9  0.         24.158E-9  48.317E-9 
 126.63E-6  795.67E-6  100.76E-9  0.         50.382E-9  100.77E-9  100.76E-9  0.         50.382E-9  100.77E-9 
 165.58E-6  0.0010404  172.26E-9  0.         86.137E-9  172.28E-9  172.26E-9  0.         86.137E-9  172.28E-9 
 204.52E-6  0.0012851  262.83E-9  0.         131.42E-9  262.86E-9  262.83E-9  0.         131.42E-9  262.86E-9 
 243.47E-6  0.0015298  372.45E-9  0.         186.24E-9  372.5E-9   372.45E-9  0.         186.24E-9  372.5E-9  
 302.36E-6  0.0018998  574.41E-9  0.         287.24E-9  574.5E-9   574.41E-9  0.         287.24E-9  574.5E-9  
 361.25E-6  0.0022698  819.95E-9  0.         410.03E-9  820.1E-9   819.95E-9  0.         410.03E-9  820.1E-9  
 450.45E-6  0.0028303  1.2749E-6  0.         637.55E-9  1.2752E-6  1.2749E-6  0.         637.55E-9  1.2752E-6 
 539.66E-6  0.0033908  1.8299E-6  0.         915.1E-9   1.8304E-6  1.8299E-6  0.         915.1E-9   1.8304E-6 
 628.86E-6  0.0039513  2.4848E-6  0.         1.2427E-6  2.4856E-6  2.4848E-6  0.         1.2427E-6  2.4856E-6 
 780.65E-6  0.004905   3.8291E-6  0.         1.915E-6   3.8306E-6  3.8291E-6  0.         1.915E-6   3.8306E-6 
 932.44E-6  0.0058587  5.4629E-6  0.         2.7323E-6  5.4654E-6  5.4629E-6  0.         2.7323E-6  5.4654E-6 
 0.0011638  0.0073124  8.5103E-6  0.         4.2568E-6  8.5153E-6  8.5103E-6  0.         4.2568E-6  8.5153E-6 
 0.0013952  0.0087661  12.23E-6   0.         6.1181E-6  12.239E-6  12.23E-6   0.         6.1181E-6  12.239E-6 
 0.0016266  0.01022    16.623E-6  0.         8.3161E-6  16.637E-6  16.623E-6  0.         8.3161E-6  16.637E-6 
 0.0020188  0.012684   25.608E-6  0.         12.813E-6  25.634E-6  25.608E-6  0.         12.813E-6  25.634E-6 
 0.0024111  0.015149   36.527E-6  0.         18.278E-6  36.571E-6  36.527E-6  0.         18.278E-6  36.571E-6 
 0.0030089  0.018904   56.881E-6  0.         28.469E-6  56.967E-6  56.881E-6  0.         28.469E-6  56.967E-6 
 0.0036066  0.022659   81.724E-6  0.         40.911E-6  81.872E-6  81.724E-6  0.         40.911E-6  81.872E-6 
 0.0042043  0.026413   111.06E-6  0.         55.606E-6  111.29E-6  111.06E-6  0.         55.606E-6  111.29E-6 
 0.0052163  0.032769   170.95E-6  0.         85.623E-6  171.4E-6   170.95E-6  0.         85.623E-6  171.4E-6  
 0.0062283  0.039123   243.7E-6   0.         122.11E-6  244.47E-6  243.7E-6   0.         122.11E-6  244.47E-6 
 0.007769   0.048795   379.16E-6  0.         190.07E-6  380.65E-6  379.16E-6  0.         190.07E-6  380.65E-6 
 0.0093097  0.058461   544.41E-6  0.         273.06E-6  546.97E-6  544.41E-6  0.         273.06E-6  546.97E-6 
 0.01085    0.068123   739.44E-6  0.         371.07E-6  743.5E-6   739.44E-6  0.         371.07E-6  743.5E-6  
 0.013453   0.08443    0.0011365  0.         570.85E-6  0.0011443  0.0011365  0.         570.85E-6  0.0011443 
 0.016057   0.10071    0.0016185  0.         813.62E-6  0.0016316  0.0016185  0.         813.62E-6  0.0016316 
 0.020008   0.12538    0.0025119  0.         0.0012644  0.0025375  0.0025119  0.         0.0012644  0.0025375 
 0.02396    0.14998    0.0036     0.         0.0018146  0.0036439  0.0036     0.         0.0018146  0.0036439 
 0.027911   0.17447    0.0048821  0.         0.0024641  0.0049515  0.0048821  0.         0.0024641  0.0049515 
 0.034524   0.21522    0.0074591  0.         0.0037732  0.0075908  0.0074591  0.         0.0037732  0.0075908 
 0.041137   0.2556     0.010573   0.         0.0053602  0.010796   0.010573   0.         0.0053602  0.010796  
 0.051125   0.31573    0.016279   0.         0.0082816  0.016709   0.016279   0.         0.0082816  0.016709  
 0.061113   0.37462    0.023175   0.         0.01183    0.02391    0.023175   0.         0.01183    0.02391   
 0.071101   0.43203    0.031232   0.         0.015997   0.03239    0.031232   0.         0.015997   0.03239   
 0.087689   0.52351    0.047082   0.         0.024256   0.04926    0.047082   0.         0.024256   0.04926   
 0.10428    0.60931    0.065872   0.         0.034136   0.069537   0.065872   0.         0.034136   0.069537  
 0.12916    0.72534    0.09908    0.         0.051809   0.10604    0.09908    0.         0.051809   0.10604   
 0.15404    0.82367    0.13762    0.         0.072627   0.14939    0.13762    0.         0.072627   0.14939   
 0.19082    0.93166    0.20218    0.         0.10823    0.22438    0.20218    0.         0.10823    0.22438   
 0.2276     0.99011    0.27287    0.         0.14829    0.31       0.27287    0.         0.14829    0.31      
 0.28277    0.97887    0.3815     0.         0.21257    0.45064    0.3815     0.         0.21257    0.45064   
 0.33794    0.85118    0.48247    0.         0.27654    0.59585    0.48247    0.         0.27654    0.59585   
 0.39311    0.62222    0.56376    0.         0.33403    0.73365    0.56376    0.         0.33403    0.73365   
 0.47981    0.1265     0.62867    0.         0.39823    0.90926    0.62867    0.         0.39823    0.90926   
 0.56651   -0.40584    0.60445    0.         0.42166    1.0165     0.60445    0.         0.42166    1.0165    
 0.67488   -0.89067    0.46394    0.         0.3957     1.0563     0.46394    0.         0.3957     1.0563    
 0.78326   -0.97825    0.26141    0.         0.33396    1.0416     0.26141    0.         0.33396    1.0416    
 0.89163   -0.62951    0.087169   0.         0.28012    1.062      0.087169   0.         0.28012    1.062     
 0.94581   -0.33392    0.034964   0.         0.26889    1.1128     0.034964   0.         0.26889    1.1128    
 1.         14.E-15    0.01687    0.         0.27457    1.2056     0.01687    0.         0.27457    1.2056    
#Freq       vm(in)     vm(out1)   vm(out2)   vm(out3)   vm(out4)   vm(ref1)   vm(ref2)   vm(ref3)   vm(ref4)   vp(in)     vp(out1)   vp(out2)   vp(out3)   vp(out4)   vp(ref1)   vp(ref2)   vp(ref3)   vp(ref4)  
 0.01       1.         31.831     0.         0.99803    1.4976     31.831     0.         0.99803    1.4976     0.        -90.        0.        -176.4     -177.      -90.        0.        -176.4     -177.      
 0.1        1.         3.1831     0.         0.84673    1.3137     3.1831     0.         0.84673    1.3137     0.        -90.        0.        -147.86    -153.15    -90.        0.        -147.86    -153.15    
 1.         1.         0.31831    0.         0.15718    0.30796    0.31831    0.         0.15718    0.30796    0.        -90.        0.        -99.043    -103.27    -90.        0.        -99.043    -103.27    
 10.        1.         0.031831   0.         0.015913   0.03182    0.031831   0.         0.015913   0.03182    0.        -90.        0.        -90.912    -91.367    -90.        0.        -90.912    -91.367    
 100.       1.         0.0031831  0.         0.0015915  0.0031831  0.0031831  0.         0.0015915  0.0031831  0.        -90.        0.        -90.091    -90.137    -90.        0.        -90.091    -90.137    
Gnucap   System status
iterations: op=0, dc=3, tran=196, fourier=0, total=268
transient timesteps: accepted=58, rejected=6, total=64
nodes: user=12, subckt=0, model=17, total=29
dctran density=36.7%, ac density=10.1%
