//va_laplace_nd #() a(1,2,3,4); 
va_laplace #(.n0(1),.d0(1)) b0 (.out0(0),.out1(1),.in0(in),.in1(0));
va_laplace #(.n0(2),.n1(2),.d0(2),.d1(2)) b1 (.out0(0),.out1(2),.in0(in),.in1(0));
va_laplace #(.n0(1),.n1(0),.n2(1),.d0(1),.d1(0),.d2(1)) b1 (.out0(0),.out1(3),.in0(in),.in1(0));
vsine #(.freq(1),.ampl(1)) v1 (.p(in),.n(0));
resistor #(.r(1)) r1 (.p(1),.n(0));
resistor #(.r(1)) r1 (.p(2),.n(0));
resistor #(.r(1)) r1 (.p(3),.n(0));
#Time       v(1)       v(2)       v(3)       v(in)     
 0.         0.         0.         0.         0.        
 482.25E-9  3.0301E-6  3.0301E-6  3.0301E-6  3.0301E-6 
 759.47E-9  4.7719E-6  4.7719E-6  4.7719E-6  4.7719E-6 
 1.3647E-6  8.5744E-6  8.5744E-6  8.5744E-6  8.5744E-6 
 1.8222E-6  11.449E-6  11.449E-6  11.449E-6  11.449E-6 
 56.395E-6  354.34E-6  354.34E-6  354.34E-6  354.34E-6 
 110.97E-6  697.24E-6  697.24E-6  697.24E-6  697.24E-6 
 165.54E-6  0.0010401  0.0010401  0.0010401  0.0010401 
 220.11E-6  0.001383   0.001383   0.001383   0.001383  
 274.69E-6  0.0017259  0.0017259  0.0017259  0.0017259 
 329.26E-6  0.0020688  0.0020688  0.0020688  0.0020688 
 383.83E-6  0.0024117  0.0024117  0.0024117  0.0024117 
 476.65E-6  0.0029949  0.0029949  0.0029949  0.0029949 
 569.46E-6  0.003578   0.003578   0.003578   0.003578  
 710.91E-6  0.0044667  0.0044667  0.0044667  0.0044667 
 852.35E-6  0.0053554  0.0053554  0.0053554  0.0053554 
 993.79E-6  0.0062441  0.0062441  0.0062441  0.0062441 
 0.0012338  0.0077519  0.0077519  0.0077519  0.0077519 
 0.0014737  0.0092596  0.0092596  0.0092596  0.0092596 
 0.0018395  0.011558   0.011558   0.011558   0.011558  
 0.0022053  0.013856   0.013856   0.013856   0.013856  
 0.002571   0.016153   0.016153   0.016153   0.016153  
 0.0031917  0.020053   0.020053   0.020053   0.020053  
 0.0038124  0.023952   0.023952   0.023952   0.023952  
 0.0047584  0.029894   0.029894   0.029894   0.029894  
 0.0057045  0.035835   0.035835   0.035835   0.035835  
 0.0066505  0.041774   0.041774   0.041774   0.041774  
 0.0082553  0.051846   0.051846   0.051846   0.051846  
 0.00986    0.061913   0.061913   0.061913   0.061913  
 0.012305   0.077237   0.077237   0.077237   0.077237  
 0.01475    0.092542   0.092542   0.092542   0.092542  
 0.017194   0.10783    0.10783    0.10783    0.10783   
 0.021341   0.13369    0.13369    0.13369    0.13369   
 0.025488   0.15946    0.15946    0.15946    0.15946   
 0.031816   0.19858    0.19858    0.19858    0.19858   
 0.038144   0.23738    0.23738    0.23738    0.23738   
 0.044472   0.2758     0.2758     0.2758     0.2758    
 0.055208   0.33997    0.33997    0.33997    0.33997   
 0.065945   0.40259    0.40259    0.40259    0.40259   
 0.082332   0.49454    0.49454    0.49454    0.49454   
 0.098719   0.58125    0.58125    0.58125    0.58125   
 0.12375    0.70155    0.70155    0.70155    0.70155   
 0.14879    0.80452    0.80452    0.80452    0.80452   
 0.18748    0.92383    0.92383    0.92383    0.92383   
 0.22617    0.98881    0.98881    0.98881    0.98881   
 0.29066    0.96755    0.96755    0.96755    0.96755   
 0.35514    0.7896     0.7896     0.7896     0.7896    
 0.41963    0.48379    0.48379    0.48379    0.48379   
 0.48411    0.099643   0.099643   0.099643   0.099643  
 0.5701    -0.42632   -0.42632   -0.42632   -0.42632   
 0.65608   -0.83086   -0.83086   -0.83086   -0.83086   
 0.74206   -0.99876   -0.99876   -0.99876   -0.99876   
 0.82804   -0.88218   -0.88218   -0.88218   -0.88218   
 0.87103   -0.72453   -0.72453   -0.72453   -0.72453   
 0.91402   -0.51434   -0.51434   -0.51434   -0.51434   
 0.95701   -0.26684   -0.26684   -0.26684   -0.26684   
 1.         14.E-15    109.E-15  -100.E-15   14.E-15   
#Freq       vm(1)      vm(2)      vm(3)      vm(in)     vp(1)      vp(2)      vp(3)      vp(in)    
 0.01       1.         1.         1.         1.         0.         0.         0.         0.        
 0.1        1.         1.         1.         1.         0.         0.         0.         0.        
 1.         1.         1.         1.         1.         0.         0.         0.         0.        
 10.        1.         1.         1.         1.         0.         0.         0.         0.        
 100.       1.         1.         1.         1.         0.         0.         0.         0.        
Gnucap   System status
iterations: op=0, dc=0, tran=183, fourier=0, total=249
transient timesteps: accepted=57, rejected=4, total=61
nodes: user=4, subckt=0, model=7, total=11
dctran density=53.7%, ac density=24.0%
