//va_laplace_nd #() a(1,2,3,4); 
va_laplace_nd #(.n0(1),.d0(1)) b0 (.out0(0),.out1(1),.in0(in),.in1(0));
va_laplace_nd #(.n0(1),.n1(1),.d0(1),.d1(1)) b1 (.out0(0),.out1(2),.in0(in),.in1(0));
va_laplace_nd #(.n0(1),.n1(1),.n2(1),.d0(1),.d1(1),.d2(1)) b1 (.out0(0),.out1(3),.in0(in),.in1(0));
vsine #(.freq(1),.ampl(1)) v1 (.p(in),.n(0));
resistor #(.r(1)) r1 (.p(1),.n(0));
resistor #(.r(1)) r1 (.p(2),.n(0));
resistor #(.r(1)) r1 (.p(3),.n(0));
#Time       v(1)       v(2)       v(3)       v(in)     
 0.         0.         0.         0.         0.        
 498.E-9    3.129E-6   3.129E-6   3.129E-6   3.129E-6  
 766.E-9    4.8129E-6  4.8129E-6  4.8129E-6  4.8129E-6 
 1.384E-6   8.6959E-6  8.6959E-6  8.6959E-6  8.6959E-6 
 1.84E-6    11.561E-6  11.561E-6  11.561E-6  11.561E-6 
 56.71E-6   356.32E-6  356.32E-6  356.32E-6  356.32E-6 
 111.58E-6  701.08E-6  701.08E-6  701.08E-6  701.08E-6 
 166.45E-6  0.0010458  0.0010458  0.0010458  0.0010458 
 221.32E-6  0.0013906  0.0013906  0.0013906  0.0013906 
 276.19E-6  0.0017354  0.0017354  0.0017354  0.0017354 
 331.06E-6  0.0020801  0.0020801  0.0020801  0.0020801 
 385.93E-6  0.0024249  0.0024249  0.0024249  0.0024249 
 479.26E-6  0.0030112  0.0030112  0.0030112  0.0030112 
 572.58E-6  0.0035976  0.0035976  0.0035976  0.0035976 
 714.81E-6  0.0044913  0.0044913  0.0044913  0.0044913 
 857.04E-6  0.0053849  0.0053849  0.0053849  0.0053849 
 999.26E-6  0.0062785  0.0062785  0.0062785  0.0062785 
 0.0012406  0.0077946  0.0077946  0.0077946  0.0077946 
 0.0014819  0.0093107  0.0093107  0.0093107  0.0093107 
 0.0018498  0.011622   0.011622   0.011622   0.011622  
 0.0022177  0.013934   0.013934   0.013934   0.013934  
 0.0025856  0.016245   0.016245   0.016245   0.016245  
 0.0032102  0.020169   0.020169   0.020169   0.020169  
 0.0038347  0.024092   0.024092   0.024092   0.024092  
 0.0047871  0.030074   0.030074   0.030074   0.030074  
 0.0057394  0.036054   0.036054   0.036054   0.036054  
 0.0066918  0.042033   0.042033   0.042033   0.042033  
 0.0083096  0.052187   0.052187   0.052187   0.052187  
 0.0099273  0.062335   0.062335   0.062335   0.062335  
 0.012396   0.07781    0.07781    0.07781    0.07781   
 0.014865   0.093266   0.093266   0.093266   0.093266  
 0.017334   0.1087     0.1087     0.1087     0.1087    
 0.021534   0.13489    0.13489    0.13489    0.13489   
 0.025733   0.16098    0.16098    0.16098    0.16098   
 0.032143   0.20059    0.20059    0.20059    0.20059   
 0.038553   0.23987    0.23987    0.23987    0.23987   
 0.048167   0.29804    0.29804    0.29804    0.29804   
 0.057781   0.35513    0.35513    0.35513    0.35513   
 0.072277   0.43868    0.43868    0.43868    0.43868   
 0.086773   0.5186     0.5186     0.5186     0.5186    
 0.10905    0.6328     0.6328     0.6328     0.6328    
 0.13132    0.73462    0.73462    0.73462    0.73462   
 0.16607    0.86414    0.86414    0.86414    0.86414   
 0.20081    0.95263    0.95263    0.95263    0.95263   
 0.26229    0.99702    0.99702    0.99702    0.99702   
 0.32377    0.8945     0.8945     0.8945     0.8945    
 0.38524    0.66017    0.66017    0.66017    0.66017   
 0.44672    0.32856    0.32856    0.32856    0.32856   
 0.50819   -0.05146   -0.05146   -0.05146   -0.05146   
 0.59016   -0.53668   -0.53668   -0.53668   -0.53668   
 0.67213   -0.88267   -0.88267   -0.88267   -0.88267   
 0.7541    -0.99967   -0.99967   -0.99967   -0.99967   
 0.83606   -0.85732   -0.85732   -0.85732   -0.85732   
 0.87705   -0.69795   -0.69795   -0.69795   -0.69795   
 0.91803   -0.49255   -0.49255   -0.49255   -0.49255   
 0.95902   -0.25467   -0.25467   -0.25467   -0.25467   
 1.         14.E-15    109.E-15  -71.E-15    14.E-15   
#Freq       vm(1)      vm(2)      vm(3)      vm(in)     vp(1)      vp(2)      vp(3)      vp(in)    
 0.01       1.         1.         1.         1.         0.         0.         0.         0.        
 0.1        1.         1.         1.         1.         0.         0.         0.         0.        
 1.         1.         1.         1.         1.         0.         0.         0.         0.        
 10.        1.         1.         1.         1.         0.         0.         0.         0.        
 100.       1.         1.         1.         1.         0.         0.         0.         0.        
//va_laplace_nd #() a(1,2,3,4); 
va_laplace_nd #(.n0(1),.d0(1)) b0 (.out0(0),.out1(1),.in0(in),.in1(0));
va_laplace_nd #(.n0(1),.n1(1),.d0(1),.d1(1)) b1 (.out0(0),.out1(2),.in0(in),.in1(0));
va_laplace_nd #(.n0(1),.n1(1),.n2(1),.d0(1),.d1(1),.d2(1)) b1 (.out0(0),.out1(3),.in0(in),.in1(0));
vsine #(.freq(1),.ampl(1)) v1 (.p(in),.n(0));
resistor #(.r(1)) r1 (.p(1),.n(0));
resistor #(.r(1)) r1 (.p(2),.n(0));
resistor #(.r(1)) r1 (.p(3),.n(0));
Gnucap   System status
iterations: op=0, dc=0, tran=183, fourier=0, total=249
transient timesteps: accepted=57, rejected=4, total=61
nodes: user=4, subckt=0, model=7, total=11
dctran density=53.7%, ac density=25.6%
