//va_laplace_nd #() a(1,2,3,4); 
va_laplace_nd #(.n0(1),.d0(1)) b0 (.out0(0),.out1(1),.in0(in),.in1(0));
va_laplace_nd #(.n0(2),.n1(2),.d0(2),.d1(2)) b1 (.out0(0),.out1(2),.in0(in),.in1(0));
va_laplace_nd #(.n0(1),.n1(0),.n2(1),.d0(1),.d1(0),.d2(1)) b1 (.out0(0),.out1(3),.in0(in),.in1(0));
vsine #(.freq(1),.ampl(1)) v1 (.p(in),.n(0));
resistor #(.r(1)) r1 (.p(1),.n(0));
resistor #(.r(1)) r1 (.p(2),.n(0));
resistor #(.r(1)) r1 (.p(3),.n(0));
#Time       v(1)       v(2)       v(3)       v(in)     
 0.         0.         0.         0.         0.        
 497.87E-9  3.1282E-6  3.1282E-6  3.1282E-6  3.1282E-6 
 766.39E-9  4.8154E-6  4.8154E-6  4.8154E-6  4.8154E-6 
 1.3841E-6  8.6966E-6  8.6966E-6  8.6966E-6  8.6966E-6 
 1.8403E-6  11.563E-6  11.563E-6  11.563E-6  11.563E-6 
 56.698E-6  356.24E-6  356.24E-6  356.24E-6  356.24E-6 
 111.56E-6  700.92E-6  700.92E-6  700.92E-6  700.92E-6 
 166.41E-6  0.0010456  0.0010456  0.0010456  0.0010456 
 221.27E-6  0.0013903  0.0013903  0.0013903  0.0013903 
 276.13E-6  0.001735   0.001735   0.001735   0.001735  
 330.99E-6  0.0020796  0.0020796  0.0020796  0.0020796 
 385.84E-6  0.0024243  0.0024243  0.0024243  0.0024243 
 479.14E-6  0.0030105  0.0030105  0.0030105  0.0030105 
 572.44E-6  0.0035968  0.0035968  0.0035968  0.0035968 
 714.61E-6  0.00449    0.00449    0.00449    0.00449   
 856.77E-6  0.0053832  0.0053832  0.0053832  0.0053832 
 998.94E-6  0.0062765  0.0062765  0.0062765  0.0062765 
 0.0012401  0.0077919  0.0077919  0.0077919  0.0077919 
 0.0014813  0.0093073  0.0093073  0.0093073  0.0093073 
 0.001849   0.011617   0.011617   0.011617   0.011617  
 0.0022166  0.013927   0.013927   0.013927   0.013927  
 0.0025842  0.016237   0.016237   0.016237   0.016237  
 0.003208   0.020155   0.020155   0.020155   0.020155  
 0.0038318  0.024074   0.024074   0.024074   0.024074  
 0.0047823  0.030044   0.030044   0.030044   0.030044  
 0.0057329  0.036013   0.036013   0.036013   0.036013  
 0.0066834  0.041981   0.041981   0.041981   0.041981  
 0.0082959  0.052101   0.052101   0.052101   0.052101  
 0.0099085  0.062217   0.062217   0.062217   0.062217  
 0.012365   0.077615   0.077615   0.077615   0.077615  
 0.014822   0.092995   0.092995   0.092995   0.092995  
 0.017279   0.10835    0.10835    0.10835    0.10835   
 0.021443   0.13432    0.13432    0.13432    0.13432   
 0.025607   0.1602     0.1602     0.1602     0.1602    
 0.031976   0.19956    0.19956    0.19956    0.19956   
 0.038344   0.2386     0.2386     0.2386     0.2386    
 0.044713   0.27726    0.27726    0.27726    0.27726   
 0.055568   0.3421     0.3421     0.3421     0.3421    
 0.066424   0.40534    0.40534    0.40534    0.40534   
 0.083095   0.4987     0.4987     0.4987     0.4987    
 0.099766   0.58659    0.58659    0.58659    0.58659   
 0.12477    0.70609    0.70609    0.70609    0.70609   
 0.14978    0.8082     0.8082     0.8082     0.8082    
 0.18843    0.92609    0.92609    0.92609    0.92609   
 0.22707    0.98964    0.98964    0.98964    0.98964   
 0.29148    0.96622    0.96622    0.96622    0.96622   
 0.35589    0.7867     0.7867     0.7867     0.7867    
 0.4203     0.48008    0.48008    0.48008    0.48008   
 0.48471    0.095894   0.095894   0.095894   0.095894  
 0.5706    -0.42916   -0.42916   -0.42916   -0.42916   
 0.65648   -0.83226   -0.83226   -0.83226   -0.83226   
 0.74236   -0.99885   -0.99885   -0.99885   -0.99885   
 0.82824   -0.88159   -0.88159   -0.88159   -0.88159   
 0.87118   -0.72388   -0.72388   -0.72388   -0.72388   
 0.91412   -0.5138    -0.5138    -0.5138    -0.5138    
 0.95706   -0.26654   -0.26654   -0.26654   -0.26654   
 1.         14.E-15    109.E-15  -100.E-15   14.E-15   
#Freq       vm(1)      vm(2)      vm(3)      vm(in)     vp(1)      vp(2)      vp(3)      vp(in)    
 0.01       1.         1.         1.         1.         0.         0.         0.         0.        
 0.1        1.         1.         1.         1.         0.         0.         0.         0.        
 1.         1.         1.         1.         1.         0.         0.         0.         0.        
 10.        1.         1.         1.         1.         0.         0.         0.         0.        
 100.       1.         1.         1.         1.         0.         0.         0.         0.        
Gnucap   System status
iterations: op=0, dc=0, tran=183, fourier=0, total=249
transient timesteps: accepted=57, rejected=4, total=61
nodes: user=4, subckt=0, model=7, total=11
dctran density=53.7%, ac density=25.6%
