va_transition #() b0 (.out0(0),.out1(1),.in0(in),.in1(0));
vpulse #(.val0(0),.val1(1),.rise(.1),.fall(.1),.width(.3),.period(1)) v1 (.p(in),.n(0));
//resistor #(1) r1(1,0); 
reject #() r ();
#Time       v(1)       v(in)      control(0) iter(0)   
 0.         0.         0.         1.         3.        
 0.05       0.         0.5        9.         3.        
 0.1        0.         1.         2.         3.        
 0.15       0.         1.         2.         3.        
 0.2        0.027778   1.         2.         3.        
 0.25       0.08179    1.         6.         3.        
 0.3        0.1358     1.         6.         3.        
 0.35       0.18981    1.         6.         3.        
 0.4        0.24383    1.         2.         3.        
 0.5        0.35185    0.         2.         3.        
 0.50012    0.35198    0.         16.        6.        
 0.50021    0.35208    0.         6.         2.        
 0.50031    0.35218    0.         6.         2.        
 0.5004     0.35229    0.         6.         2.        
 0.87151    0.75317    0.         2.         3.        
 1.         0.63636    0.         2.         3.        
 1.1        0.54545    1.         2.         3.        
 1.2        0.45455    1.         6.         3.        
 1.3        0.36364    1.         6.         3.        
 1.35       0.31818    1.         6.         3.        
 1.4        0.27273    1.         2.         3.        
 1.425      0.25       0.75       2.         3.        
 1.4625     0.29167    0.375      6.         3.        
 1.5        0.33333    0.         2.         3.        
 1.5001     0.33343    0.         16.        6.        
 1.5002     0.3335     0.         6.         2.        
 1.5002     0.33355    0.         6.         2.        
 1.5002     0.3336     0.         6.         2.        
 1.7        0.55556    0.         2.         3.        
 1.7687     0.63188    0.         2.         3.        
 1.8717     0.56199    0.         2.         3.        
 2.         0.47493    0.         2.         3.        
 2.0024     0.47333    0.023585   2.         3.        
 2.0349     0.45125    0.34906    6.         3.        
 2.0675     0.42917    0.67453    6.         3.        
 2.1        0.40709    1.         2.         3.        
 2.2282     0.32009    1.         16.        6.        
 2.2855     0.28124    1.         6.         3.        
 2.3427     0.24239    1.         6.         3.        
 2.4        0.20354    1.         2.         3.        
