va_transition #() b0 (.out0(0),.out1(1),.in0(in),.in1(0));
vpulse #(.val0(0),.val1(1),.rise(.1),.fall(.1),.width(.3),.period(1)) v1 (.p(in),.n(0));
//resistor #(1) r1(1,0); 
reject #() r ();
#Time       v(1)       v(in)      control(0) iter(0)   
 0.         0.         0.         1.         3.        
 0.033333   0.         0.33333    9.         3.        
 0.066667   0.         0.66667    6.         3.        
 0.1        0.         1.         2.         3.        
 0.13333    1.8519E-9  1.         2.         3.        
 0.16667    0.012346   1.         2.         3.        
 0.2        0.03658    1.         2.         3.        
 0.23333    0.072262   1.         6.         3.        
 0.4        0.25067    1.         2.         3.        
 0.5        0.35772    0.         2.         3.        
 0.50016    0.35789    0.         16.        6.        
 0.50032    0.35806    0.         6.         2.        
 0.50041    0.35816    0.         6.         2.        
 0.50051    0.35827    0.         6.         2.        
 0.87038    0.7542     0.         2.         3.        
 1.         0.63636    0.         2.         3.        
 1.1        0.54545    1.         2.         3.        
 1.1        0.54545    1.         2.         2.        
 1.175      0.47727    1.         6.         3.        
 1.25       0.40909    1.         6.         3.        
 1.325      0.34091    1.         6.         3.        
 1.4        0.27273    1.         2.         3.        
 1.425      0.25       0.75       2.         3.        
 1.4625     0.29167    0.375      6.         3.        
 1.5        0.33333    0.         2.         3.        
 1.5001     0.33343    0.         16.        6.        
 1.5002     0.3335     0.         6.         2.        
 1.5002     0.33355    0.         6.         2.        
 1.5002     0.3336     0.         6.         2.        
 1.7        0.55556    0.         2.         3.        
 1.7687     0.63188    0.         2.         3.        
 1.8717     0.56199    0.         2.         3.        
 2.         0.47493    0.         2.         3.        
 2.0024     0.47333    0.023585   2.         3.        
 2.0349     0.45125    0.34906    6.         3.        
 2.0675     0.42917    0.67453    6.         3.        
 2.1        0.40709    1.         2.         3.        
 2.2282     0.32009    1.         16.        6.        
 2.2855     0.28124    1.         6.         3.        
 2.3427     0.24239    1.         6.         3.        
 2.4        0.20354    1.         2.         3.        
