#          
 0.        
#Time       v(nin)     v(o1)      v(o2)      v(o3)     
 0.         0.         0.         0.         0.        
 2.E-12     0.036      6.9825E-6  0.         0.        
 3.E-12     0.054      11.638E-6  0.         0.        
 4.E-12     0.072      19.396E-6  0.         0.        
 5.E-12     0.09       32.327E-6  0.         0.        
 6.E-12     0.108      53.878E-6  0.         0.        
 7.E-12     0.126      89.796E-6  0.         0.        
 8.E-12     0.144      149.66E-6  0.         0.        
 9.E-12     0.162      249.4E-6   0.         0.        
 10.E-12    0.18       415.48E-6  0.         0.        
 11.E-12    0.198      691.39E-6  0.         0.        
 12.E-12    0.216      0.0011471  0.         0.        
 13.E-12    0.234      0.0018904  0.         0.        
 14.E-12    0.252      0.0030739  0.         0.        
 15.E-12    0.27       0.0048846  0.         0.0038264 
 16.E-12    0.288      0.0074973  0.         0.0082868 
 17.E-12    0.306      0.010982   0.         0.012747  
 18.E-12    0.324      0.015198   0.         0.017208  
 19.E-12    0.342      0.019771   0.         0.021668  
 20.E-12    0.36       0.02423    0.         0.026128  
 21.E-12    0.378      0.028292   0.         0.030589  
 22.E-12    0.396      0.032059   0.         0.035049  
 23.E-12    0.414      0.035884   0.         0.039509  
 24.E-12    0.432      0.039966   0.         0.04397   
 25.E-12    0.45       0.044133   0.         0.04843   
 26.E-12    0.468      0.048108   0.         0.052891  
 27.E-12    0.486      0.051913   0.         0.057351  
 28.E-12    0.504      0.055802   0.         0.061811  
 29.E-12    0.522      0.059831   0.         0.066272  
 30.E-12    0.54       0.063783   0.         0.070732  
 31.E-12    0.558      0.067581   0.         0.075192  
 32.E-12    0.576      0.071418   0.         0.079653  
 33.E-12    0.594      0.075364   0.         0.084113  
 34.E-12    0.612      0.079243   0.         0.088574  
 35.E-12    0.63       0.083019   0.         0.093034  
 36.E-12    0.648      0.086872   0.         0.097494  
 37.E-12    0.666      0.090807   0.         0.10195   
 38.E-12    0.684      0.094688   0.         0.10642   
 39.E-12    0.702      0.098596   0.         0.11088   
 40.E-12    0.72       0.10269    0.         0.11534   
 41.E-12    0.738      0.10693    0.         0.1198    
 42.E-12    0.756      0.11132    0.         0.12426   
 43.E-12    0.774      0.11606    0.         0.13084   
 44.E-12    0.792      0.12123    0.         0.13847   
 45.E-12    0.81       0.12678    0.         0.14627   
 46.E-12    0.828      0.13278    0.         0.15409   
 47.E-12    0.846      0.13924    0.         0.1619    
 48.E-12    0.864      0.1459     0.         0.16972   
 49.E-12    0.882      0.15259    0.         0.17753   
 50.E-12    0.9        0.15921    0.         0.18535   
 51.E-12    0.918      0.16554    0.         0.19317   
 52.E-12    0.936      0.17158    0.         0.20098   
 53.E-12    0.954      0.17756    0.         0.2088    
 54.E-12    0.972      0.18361    0.         0.21661   
 55.E-12    0.99       0.18977    0.         0.22443   
 56.E-12    1.008      0.1961     0.         0.23224   
 57.E-12    1.026      0.20241    0.         0.24006   
 58.E-12    1.044      0.20851    0.         0.24787   
 59.E-12    1.062      0.2145     0.         0.25569   
 60.E-12    1.08       0.22048    0.         0.2635    
 61.E-12    1.098      0.22652    0.         0.27132   
 62.E-12    1.116      0.23269    0.         0.27914   
 63.E-12    1.134      0.23883    0.         0.28695   
 64.E-12    1.152      0.24482    0.         0.29477   
 65.E-12    1.17       0.25077    0.         0.30258   
 66.E-12    1.188      0.25679    0.         0.3104    
 67.E-12    1.206      0.26291    0.         0.31821   
 68.E-12    1.224      0.26913    0.         0.32603   
 69.E-12    1.242      0.27533    0.         0.33384   
 70.E-12    1.26       0.28156    0.         0.34166   
 71.E-12    1.278      0.28804    0.         0.35065   
 72.E-12    1.296      0.29479    0.         0.36061   
 73.E-12    1.314      0.30175    0.         0.37089   
 74.E-12    1.332      0.30892    0.         0.38122   
 75.E-12    1.35       0.31631    0.         0.39156   
 76.E-12    1.368      0.32397    0.         0.4019    
 77.E-12    1.386      0.33184    0.         0.41224   
 78.E-12    1.404      0.33966    0.         0.42258   
 79.E-12    1.422      0.34736    0.         0.43292   
 80.E-12    1.44       0.35497    0.         0.44326   
 81.E-12    1.458      0.36243    0.         0.4536    
 82.E-12    1.476      0.36975    0.         0.46394   
 83.E-12    1.494      0.37696    0.         0.47427   
 84.E-12    1.512      0.38421    0.         0.48461   
 85.E-12    1.53       0.39165    0.         0.49495   
 86.E-12    1.548      0.39915    0.         0.50529   
 87.E-12    1.566      0.40659    0.         0.51563   
 88.E-12    1.584      0.414      0.         0.52597   
 89.E-12    1.602      0.42133    0.         0.53631   
 90.E-12    1.62       0.42855    0.         0.54665   
 91.E-12    1.638      0.43575    0.         0.55699   
 92.E-12    1.656      0.44301    0.         0.56733   
 93.E-12    1.674      0.45039    0.         0.57767   
 94.E-12    1.692      0.45779    0.         0.58801   
 95.E-12    1.71       0.46507    0.         0.59835   
 96.E-12    1.728      0.47235    0.         0.60868   
 97.E-12    1.746      0.47968    0.         0.61902   
 98.E-12    1.764      0.48708    0.         0.62936   
 99.E-12    1.782      0.49463    0.         0.64035   
 100.E-12   1.8        0.50232    0.         0.65209   
 101.E-12   1.8        0.51011    0.         0.66421   
 102.E-12   1.8        0.51796    0.         0.67643   
 103.E-12   1.8        0.52595    0.         0.68866   
 104.E-12   1.8        0.53419    0.         0.7009    
 105.E-12   1.8        0.54258    0.         0.71314   
 106.E-12   1.8        0.55097    0.         0.72537   
 107.E-12   1.8        0.55935    0.         0.73761   
 108.E-12   1.8        0.56767    0.         0.74985   
 109.E-12   1.8        0.57592    0.         0.76209   
 110.E-12   1.8        0.58408    0.         0.77432   
 111.E-12   1.8        0.59212    0.         0.78656   
 112.E-12   1.8        0.59998    0.         0.7988    
 113.E-12   1.8        0.60755    0.         0.81104   
 114.E-12   1.8        0.61471    0.         0.82327   
 115.E-12   1.8        0.62112    0.         0.83169   
 116.E-12   1.8        0.62625    0.         0.83946   
 117.E-12   1.8        0.63       0.         0.84724   
 118.E-12   1.8        0.63293    0.         0.85502   
 119.E-12   1.8        0.63599    0.         0.86279   
 120.E-12   1.8        0.63992    0.         0.87057   
 121.E-12   1.8        0.64454    0.         0.87835   
 122.E-12   1.8        0.64894    0.         0.88613   
 123.E-12   1.8        0.65262    0.         0.8939    
 124.E-12   1.8        0.65614    0.         0.90168   
 125.E-12   1.8        0.66037    0.         0.90946   
 126.E-12   1.8        0.66499    0.         0.91723   
 127.E-12   1.8        0.66912    0.         0.92537   
 128.E-12   1.8        0.67289    0.         0.93404   
 129.E-12   1.8        0.67718    0.         0.94307   
 130.E-12   1.8        0.68205    0.         0.95223   
 131.E-12   1.8        0.68665    0.         0.96143   
 132.E-12   1.8        0.69096    0.         0.97064   
 133.E-12   1.8        0.69575    0.         0.97984   
 134.E-12   1.8        0.70087    0.         0.98905   
 135.E-12   1.8        0.70559    0.         0.99825   
 136.E-12   1.8        0.71022    0.         1.0075    
 137.E-12   1.8        0.71532    0.         1.0167    
 138.E-12   1.8        0.72031    0.         1.0259    
 139.E-12   1.8        0.72469    0.         1.0351    
 140.E-12   1.8        0.72916    0.         1.0443    
 141.E-12   1.8        0.7338     0.         1.0535    
 142.E-12   1.8        0.73784    0.         1.0627    
 143.E-12   1.8        0.74146    0.         1.0698    
 144.E-12   1.8        0.74499    0.         1.0758    
 145.E-12   1.8        0.74776    0.         1.0817    
 146.E-12   1.8        0.74969    0.         1.0875    
 147.E-12   1.8        0.7515     0.         1.0934    
 148.E-12   1.8        0.75304    0.         1.0992    
 149.E-12   1.8        0.75435    0.         1.1051    
 150.E-12   1.8        0.75629    0.         1.1109    
 151.E-12   1.8        0.75879    0.         1.1168    
 152.E-12   1.8        0.76126    0.         1.1226    
 153.E-12   1.8        0.76394    0.         1.1285    
 154.E-12   1.8        0.76644    0.         1.1343    
 155.E-12   1.8        0.76823    0.         1.1404    
 156.E-12   1.8        0.7702     0.         1.1468    
 157.E-12   1.8        0.77273    0.         1.1535    
 158.E-12   1.8        0.77535    0.         1.1604    
 159.E-12   1.8        0.77817    0.         1.1673    
 160.E-12   1.8        0.78095    0.         1.1742    
 161.E-12   1.8        0.78327    0.         1.1811    
 162.E-12   1.8        0.78584    0.         1.188     
 163.E-12   1.8        0.78891    0.         1.195     
 164.E-12   1.8        0.79188    0.         1.2019    
 165.E-12   1.8        0.7948     0.         1.2088    
 166.E-12   1.8        0.79751    0.         1.2157    
 167.E-12   1.8        0.79994    0.         1.2227    
 168.E-12   1.8        0.80278    0.         1.2296    
 169.E-12   1.8        0.8057     0.         1.2365    
 170.E-12   1.8        0.80797    0.         1.2434    
 171.E-12   1.8        0.81004    0.         1.2492    
 172.E-12   1.8        0.81198    0.         1.254     
 173.E-12   1.8        0.81373    0.         1.2584    
 174.E-12   1.8        0.81541    0.         1.2628    
 175.E-12   1.8        0.81643    0.         1.2672    
 176.E-12   1.8        0.817      0.         1.2716    
 177.E-12   1.8        0.81784    0.         1.276     
 178.E-12   1.8        0.81865    0.         1.2804    
 179.E-12   1.8        0.81948    0.         1.2848    
 180.E-12   1.8        0.82058    0.         1.2892    
 181.E-12   1.8        0.82186    0.         1.2936    
 182.E-12   1.8        0.82357    0.         1.298     
 183.E-12   1.8        0.82523    0.         1.3025    
 184.E-12   1.8        0.82633    0.         1.3073    
 185.E-12   1.8        0.82755    0.         1.3123    
 186.E-12   1.8        0.82891    0.         1.3174    
 187.E-12   1.8        0.83007    0.         1.3226    
 188.E-12   1.8        0.83149    0.         1.3278    
 189.E-12   1.8        0.83315    0.         1.333     
 190.E-12   1.8        0.83504    0.         1.3382    
 191.E-12   1.8        0.83688    0.         1.3434    
 192.E-12   1.8        0.83816    0.         1.3486    
 193.E-12   1.8        0.83963    0.         1.3538    
 194.E-12   1.8        0.84146    0.         1.359     
 195.E-12   1.8        0.84305    0.         1.3642    
 196.E-12   1.8        0.84475    0.         1.3694    
 197.E-12   1.8        0.8464     0.         1.3747    
 198.E-12   1.8        0.84775    0.         1.3799    
 199.E-12   1.8        0.84895    0.         1.3844    
 200.E-12   1.8        0.84998    0.         1.3882    
 201.E-12   1.8        0.85123    0.         1.3917    
 202.E-12   1.8        0.85238    0.         1.395     
 203.E-12   1.8        0.85281    0.         1.3983    
 204.E-12   1.8        0.85319    0.         1.4016    
 205.E-12   1.8        0.85367    0.         1.4049    
 206.E-12   1.8        0.85402    0.         1.4082    
 207.E-12   1.8        0.85446    0.         1.4115    
 208.E-12   1.8        0.85485    0.         1.4149    
 209.E-12   1.8        0.85535    0.         1.4182    
 210.E-12   1.8        0.85602    0.         1.4215    
 211.E-12   1.8        0.85684    0.         1.4248    
 212.E-12   1.8        0.85803    0.         1.4284    
 213.E-12   1.8        0.85892    0.         1.4321    
 214.E-12   1.8        0.85942    0.         1.4359    
 215.E-12   1.8        0.86018    0.         1.4398    
 216.E-12   1.8        0.86095    0.         1.4437    
 217.E-12   1.8        0.86173    0.         1.4476    
 218.E-12   1.8        0.86259    0.         1.4515    
 219.E-12   1.8        0.86351    0.         1.4554    
 220.E-12   1.8        0.86468    0.         1.4594    
 221.E-12   1.8        0.86574    0.         1.4633    
 222.E-12   1.8        0.86676    0.         1.4672    
 223.E-12   1.8        0.86767    0.         1.4711    
 224.E-12   1.8        0.86826    0.         1.475     
 225.E-12   1.8        0.86927    0.         1.4789    
 226.E-12   1.8        0.87037    0.         1.4829    
 227.E-12   1.8        0.8711     0.         1.4864    
 228.E-12   1.8        0.87183    0.         1.4894    
 229.E-12   1.8        0.87247    0.         1.4921    
 230.E-12   1.8        0.87299    0.         1.4946    
 231.E-12   1.8        0.87329    0.         1.4971    
 232.E-12   1.8        0.87355    0.         1.4996    
 233.E-12   1.8        0.874      0.         1.5021    
 234.E-12   1.8        0.87417    0.         1.5046    
 235.E-12   1.8        0.87428    0.         1.5071    
 236.E-12   1.8        0.87439    0.         1.5096    
 237.E-12   1.8        0.87439    0.         1.5121    
 238.E-12   1.8        0.87485    0.         1.5146    
 239.E-12   1.8        0.87545    0.         1.5171    
 240.E-12   1.8        0.87581    0.         1.5197    
 241.E-12   1.8        0.87624    0.         1.5224    
 242.E-12   1.8        0.8768     0.         1.5253    
 243.E-12   1.8        0.87739    0.         1.5282    
 244.E-12   1.8        0.87777    0.         1.5311    
 245.E-12   1.8        0.8782     0.         1.5341    
 246.E-12   1.8        0.87872    0.         1.537     
 247.E-12   1.8        0.87899    0.         1.54      
 248.E-12   1.8        0.87954    0.         1.5429    
 249.E-12   1.8        0.88027    0.         1.5459    
 250.E-12   1.8        0.88095    0.         1.5488    
 251.E-12   1.8        0.88169    0.         1.5518    
 252.E-12   1.8        0.88209    0.         1.5547    
 253.E-12   1.8        0.88248    0.         1.5577    
 254.E-12   1.8        0.8831     0.         1.5606    
 255.E-12   1.8        0.8836     0.         1.5634    
 256.E-12   1.8        0.88396    0.         1.5657    
 257.E-12   1.8        0.88428    0.         1.5678    
 258.E-12   1.8        0.88482    0.         1.5698    
 259.E-12   1.8        0.8851     0.         1.5716    
 260.E-12   1.8        0.88514    0.         1.5735    
 261.E-12   1.8        0.88536    0.         1.5754    
 262.E-12   1.8        0.88532    0.         1.5773    
 263.E-12   1.8        0.88534    0.         1.5791    
 264.E-12   1.8        0.88557    0.         1.581     
 265.E-12   1.8        0.88565    0.         1.5829    
 266.E-12   1.8        0.88575    0.         1.5848    
 267.E-12   1.8        0.88578    0.         1.5867    
 268.E-12   1.8        0.88596    0.         1.5886    
 269.E-12   1.8        0.88635    0.         1.5906    
 270.E-12   1.8        0.88672    0.         1.5928    
 271.E-12   1.8        0.88701    0.         1.5949    
 272.E-12   1.8        0.88724    0.         1.5971    
 273.E-12   1.8        0.88766    0.         1.5993    
 274.E-12   1.8        0.88784    0.         1.6016    
 275.E-12   1.8        0.88792    0.         1.6038    
 276.E-12   1.8        0.88838    0.         1.606     
 277.E-12   1.8        0.88868    0.         1.6082    
 278.E-12   1.8        0.88899    0.         1.6104    
 279.E-12   1.8        0.88938    0.         1.6126    
 280.E-12   1.8        0.8897     0.         1.6149    
 281.E-12   1.8        0.89013    0.         1.6171    
 282.E-12   1.8        0.8905     0.         1.6193    
 283.E-12   1.8        0.89078    0.         1.6214    
 284.E-12   1.8        0.89089    0.         1.6233    
 285.E-12   1.8        0.89102    0.         1.6249    
 286.E-12   1.8        0.89133    0.         1.6264    
 287.E-12   1.8        0.89155    0.         1.6278    
 288.E-12   1.8        0.89176    0.         1.6292    
 289.E-12   1.8        0.89174    0.         1.6307    
 290.E-12   1.8        0.89175    0.         1.6321    
 291.E-12   1.8        0.89189    0.         1.6335    
 292.E-12   1.8        0.89172    0.         1.6349    
 293.E-12   1.8        0.89177    0.         1.6363    
 294.E-12   1.8        0.89192    0.         1.6377    
 295.E-12   1.8        0.8919     0.         1.6391    
 296.E-12   1.8        0.89198    0.         1.6406    
 297.E-12   1.8        0.89216    0.         1.6421    
 298.E-12   1.8        0.89234    0.         1.6437    
 299.E-12   1.8        0.89245    0.         1.6453    
 300.E-12   1.8        0.89263    0.         1.6469    
 301.E-12   1.8        0.89285    0.         1.6486    
 302.E-12   1.8        0.89306    0.         1.6503    
 303.E-12   1.8        0.89332    0.         1.6519    
 304.E-12   1.8        0.89333    0.         1.6536    
 305.E-12   1.8        0.89342    0.         1.6553    
 306.E-12   1.8        0.89362    0.         1.6569    
 307.E-12   1.8        0.89386    0.         1.6586    
 308.E-12   1.8        0.8942     0.         1.6603    
 309.E-12   1.8        0.89429    0.         1.6619    
 310.E-12   1.8        0.8945     0.         1.6636    
 311.E-12   1.8        0.89481    0.         1.6652    
 312.E-12   1.8        0.89486    0.         1.6667    
 313.E-12   1.8        0.89498    0.         1.6679    
 314.E-12   1.8        0.89515    0.         1.6691    
 315.E-12   1.8        0.89523    0.         1.6702    
 316.E-12   1.8        0.8952     0.         1.6713    
 317.E-12   1.8        0.89533    0.         1.6723    
 318.E-12   1.8        0.89544    0.         1.6734    
 319.E-12   1.8        0.89537    0.         1.6744    
 320.E-12   1.8        0.89545    0.         1.6755    
 321.E-12   1.8        0.89539    0.         1.6766    
 322.E-12   1.8        0.89535    0.         1.6776    
 323.E-12   1.8        0.89534    0.         1.6787    
 324.E-12   1.8        0.89532    0.         1.6798    
 325.E-12   1.8        0.89554    0.         1.6809    
 326.E-12   1.8        0.89562    0.         1.6821    
 327.E-12   1.8        0.89564    0.         1.6833    
 328.E-12   1.8        0.89572    0.         1.6845    
 329.E-12   1.8        0.89582    0.         1.6858    
 330.E-12   1.8        0.89604    0.         1.687     
 331.E-12   1.8        0.89613    0.         1.6883    
 332.E-12   1.8        0.89615    0.         1.6895    
 333.E-12   1.8        0.89627    0.         1.6908    
 334.E-12   1.8        0.89646    0.         1.692     
 335.E-12   1.8        0.89646    0.         1.6933    
 336.E-12   1.8        0.89652    0.         1.6945    
 337.E-12   1.8        0.89678    0.         1.6958    
 338.E-12   1.8        0.89679    0.         1.697     
 339.E-12   1.8        0.89697    0.         1.6983    
 340.E-12   1.8        0.89719    0.         1.6994    
 341.E-12   1.8        0.89718    0.         1.7004    
 342.E-12   1.8        0.89726    0.         1.7013    
 343.E-12   1.8        0.89727    0.         1.7021    
 344.E-12   1.8        0.89732    0.         1.7029    
 345.E-12   1.8        0.89736    0.         1.7037    
 346.E-12   1.8        0.89739    0.         1.7045    
 347.E-12   1.8        0.89744    0.         1.7053    
 348.E-12   1.8        0.89738    0.         1.7061    
 349.E-12   1.8        0.89736    0.         1.7069    
 350.E-12   1.8        0.8974     0.         1.7077    
 351.E-12   1.8        0.89743    0.         1.7085    
 352.E-12   1.8        0.89735    0.         1.7093    
 353.E-12   1.8        0.89733    0.         1.7102    
 354.E-12   1.8        0.8974     0.         1.711     
 355.E-12   1.8        0.89745    0.         1.7119    
