va_transition #() b0 (.out0(0),.out1(1),.in0(in),.in1(0));
vpulse #(.val0(0),.val1(1),.rise(.1),.fall(.1),.width(1),.period(2)) v1 (.p(in),.n(0));
//resistor #(1) r1(1,0); 
reject #() r ();
#Time       v(1)       v(in)      control(0) s(b0)     
 0.         0.         0.         1.         1.        
 0.033333   0.         0.33333    9.         3.        
 0.066667   0.         0.66667    6.         4.        
 0.1        0.         1.         2.         5.        
 0.13333    0.         1.         2.         4.        
 0.16667    0.11111    1.         2.         3.        
 0.2        0.2963     1.         2.         2.        
 0.23333    0.53086    1.         6.         2.        
 0.3        1.         1.         2.         1.        
 0.4        1.         1.         6.         1.        
 0.5        1.         1.         6.         1.        
 0.6        1.         1.         6.         1.        
 0.7        1.         1.         6.         1.        
 1.1        1.         1.         2.         1.        
 1.2        1.         0.         2.         3.        
 1.2002     1.         0.         16.        3.        
 1.2005     1.         0.         6.         3.        
 1.2006     1.         0.         6.         3.        
 1.2007     1.         0.         6.         3.        
 1.3        1.         0.         2.         2.        
 1.5        0.         0.         2.         1.        
 1.5002     0.         0.         16.        1.        
 1.5004     0.         0.         6.         1.        
 1.5006     0.         0.         6.         1.        
 1.5007     0.         0.         6.         1.        
 2.         0.         0.         2.         1.        
 2.1        0.         1.         2.         3.        
 2.2        0.         1.         2.         2.        
 2.3        1.         1.         2.         1.        
 2.4        1.         1.         6.         1.        
 2.5        1.         1.         6.         1.        
 2.6        1.         1.         6.         1.        
 2.7        1.         1.         6.         1.        
 3.1        1.         1.         2.         1.        
 3.2        1.         0.         2.         3.        
 3.2002     1.         0.         16.        3.        
 3.2005     1.         0.         6.         3.        
 3.2006     1.         0.         6.         3.        
 3.2007     1.         0.         6.         3.        
 3.3        1.         0.         2.         2.        
 3.5        0.         0.         2.         1.        
 3.5002     0.         0.         16.        1.        
 3.5004     0.         0.         6.         1.        
 3.5006     0.         0.         6.         1.        
 3.5007     0.         0.         6.         1.        
 4.         0.         0.         1.         1.        
#Time       v(1)       v(in)      control(0) s(b0)     
 4.         0.         0.         1.         1.        
 4.         0.         0.         7.         1.        
 5.         0.         0.         1.         1.        
