parameter T = {3.141592 / 4.} 
// H(z) = 1/ (z * z * (1-z)) = 1/(zz-zzz) 
va_zi #(.xr0(0.),.rr0(0.)) b (.out0(0),.out1(out2),.in0(in),.in1(0));
vsine #(.freq(1/2/3.1415),.ampl(1)) v1 (.p(in),.n(0));
#Time       v(in)      v(out2)    control(0)
 0.         0.         0.         1.        
 0.05       0.049981   0.         9.        
 0.07854    0.078461   0.         7.        
 0.3927     0.38269    0.         2.        
 0.47124    0.454      0.38269    7.        
 0.7854     0.70712    0.38269    2.        
 0.86394    0.76042    0.70712    7.        
 1.1781     0.92389    0.70712    2.        
 1.2566     0.95107    0.92389    7.        
 1.5708     1.         0.92389    2.        
 1.6493     0.99691    1.         7.        
 1.9635     0.92386    1.         2.        
 2.042      0.89098    0.92386    7.        
 2.3562     0.70706    0.92386    2.        
 2.4347     0.64939    0.70706    7.        
 2.7489     0.38261    0.70706    2.        
 2.8274     0.30894    0.38261    7.        
 3.1416    -92.003E-6  0.38261    2.        
 3.2201    -0.078553  -92.003E-6  7.        
 3.5343    -0.38278   -92.003E-6  2.        
 3.6128    -0.45408   -0.38278    7.        
 3.927     -0.70719   -0.38278    2.        
 4.0055    -0.76048   -0.70719    7.        
 4.3197    -0.92393   -0.70719    2.        
 4.3982    -0.9511    -0.92393    7.        
 4.7124    -1.        -0.92393    2.        
 4.7909    -0.99691   -1.         7.        
 5.        -0.95888   -1.         1.        
#Freq       vm(out2)   vp(out2)  
 0.05       1.        -0.70686   
 0.055      1.        -0.77754   
 0.0605     1.        -0.8553    
 0.06655    1.        -0.94083   
 0.073205   1.        -1.0349    
 0.080526   1.        -1.1384    
 0.088578   1.        -1.2522    
 0.097436   1.        -1.3775    
 0.10718    1.        -1.5152    
 0.1179     1.        -1.6667    
 0.12969    1.        -1.8334    
 0.14266    1.        -2.0167    
 0.15692    1.        -2.2184    
 0.17261    1.        -2.4403    
 0.18987    1.        -2.6843    
 0.20886    1.        -2.9527    
parameter T = {3.141592 / 4.} 
// H(z) = 1/ (z * z * (1-z)) = 1/(zz-zzz) 
va_zi #(.n0( 1.),.d0( 1.)) b (.out0(0),.out1(out2),.in0(in),.in1(0));
vsine #(.freq(1/2/3.1415),.ampl(1)) v1 (.p(in),.n(0));
// 
Gnucap   System status
iterations: op=0, dc=0, tran=84, fourier=0, total=128
transient timesteps: accepted=28, rejected=0, total=28
nodes: user=2, subckt=0, model=1, total=3
dctran density=55.6%, ac density=77.8%
