parameter T = {3.141592 / 4.} 
// H(z) = 1/z 
va_zi_nd #(.n0(0.),.n1(.707),.d0(1.)) b (.out0(0),.out1(out1),.in0(in),.in1(0));
va_zi_nd #(.n0(0.),.n2(.707),.d0(1.)) b (.out0(0),.out1(out2),.in0(in),.in1(0));
va_zi_nd #(.n0(0.),.n4(.707),.d0(1.)) b (.out0(0),.out1(out3),.in0(in),.in1(0));
vsine #(.freq(1/2/3.1415),.ampl(1)) v1 (.p(in),.n(0));
// lowpass for comparison 
// fc = 0.16Hz 
// phase shift = -45deg. delay: pi/4 
resistor #(.r(1)) r1 (.p(in),.n(out0));
capacitor #(.c(1)) c1 (.p(0),.n(out0));
#Time       v(in)      v(out0)    v(out1)    v(out2)    v(out3)    iter(0)    control(0)
 0.         0.         0.         0.         0.         0.         3.         1.        
 330.E-9    330.01E-9  109.E-15   0.         0.         0.         18.        16.       
 1.3E-6     1.3E-6     899.E-15   0.         0.         0.         6.         16.       
 2.27E-6    2.27E-6    2.631E-12  0.         0.         0.         3.         6.        
 3.24E-6    3.2401E-6  5.303E-12  0.         0.         0.         3.         6.        
 97.52E-6   97.522E-6  4.755E-9   0.         0.         0.         3.         6.        
 740.49E-6  740.5E-6   274.08E-9  0.         0.         0.         3.         6.        
 0.0033338  0.0033339  5.5496E-6  0.         0.         0.         3.         6.        
 0.010171   0.010171   51.519E-6  0.         0.         0.         3.         6.        
 0.023845   0.023843   281.79E-6  0.         0.         0.         3.         6.        
 0.051192   0.051171   0.0012861  0.         0.         0.         3.         6.        
 0.07854    0.078461   0.003      0.         0.         0.         3.         2.        
 0.13744    0.13702    0.0089931  0.         0.         0.         3.         6.        
 0.19635    0.19509    0.01798    0.         0.         0.         3.         2.        
 0.27489    0.27145    0.03425    0.         0.         0.         3.         2.        
 0.3927     0.38269    0.066828   0.         0.         0.         3.         2.        
 0.47124    0.454      0.093393   0.         0.         0.         3.         2.        
 0.58905    0.55558    0.13916    0.         0.         0.         3.         2.        
 0.66759    0.6191     0.17303    0.         0.         0.         3.         2.        
 0.7854     0.70712    0.22756    0.         0.         0.         3.         2.        
 0.86394    0.76042    0.26581    0.         0.         0.         3.         2.        
 0.98175    0.83148    0.32479    0.         0.         0.         3.         2.        
 1.0603     0.87251    0.36464    0.         0.         0.13793    3.         2.        
 1.1781     0.92389    0.424      0.         0.         0.13793    3.         2.        
 1.2566     0.95106    0.4628     0.         0.27056    0.27056    3.         2.        
 1.3744     0.98079    0.51878    0.         0.27056    0.27056    3.         2.        
 1.453      0.99307    0.55416    0.         0.27056    0.3928     3.         2.        
 1.5708     1.         0.60337    0.         0.27056    0.3928     3.         2.        
 1.6493     0.99691    0.63323    0.49993    0.49993    0.49993    3.         2.        
 1.7671     0.98077    0.67279    0.49993    0.49993    0.49993    3.         2.        
 1.8457     0.96244    0.69538    0.49993    0.49993    0.58786    3.         2.        
 1.9635     0.92386    0.72294    0.49993    0.49993    0.58786    3.         2.        
 2.042      0.89098    0.73688    0.49993    0.65319    0.65319    3.         2.        
 2.1598     0.83143    0.75072    0.49993    0.65319    0.65319    3.         2.        
 2.2384     0.78528    0.75507    0.49993    0.65319    0.69342    3.         2.        
 2.3562     0.70706    0.75408    0.49993    0.65319    0.69342    3.         2.        
 2.4347     0.64939    0.74835    0.707      0.707      0.707      3.         2.        
 2.5525     0.55551    0.73212    0.707      0.707      0.707      3.         2.        
 2.6311     0.48856    0.71624    0.707      0.707      0.69341    3.         2.        
 2.7489     0.38261    0.68502    0.707      0.707      0.69341    3.         2.        
 2.8274     0.30894    0.65938    0.707      0.65317    0.65317    3.         2.        
 2.9452     0.19501    0.61405    0.707      0.65317    0.65317    3.         2.        
 3.0238     0.11745    0.57945    0.707      0.65317    0.58782    3.         2.        
 3.1416    -86.787E-6  0.52151    0.707      0.65317    0.58782    3.         2.        
 3.2201    -0.078548   0.47913    0.49989    0.49989    0.49989    3.         2.        
 3.3379    -0.19518    0.4106     0.49989    0.49989    0.49989    3.         2.        
 3.4165    -0.27153    0.36193    0.49989    0.49989    0.39275    3.         2.        
 3.5343    -0.38277    0.28527    0.49989    0.49989    0.39275    3.         2.        
 3.6128    -0.45408    0.23209    0.49989    0.27051    0.27051    3.         2.        
 3.7306    -0.55565    0.1501     0.49989    0.27051    0.27051    3.         2.        
 3.8092    -0.61917    0.094363   0.49989    0.27051    0.13787    3.         2.        
 3.927     -0.70718    0.010082   0.49989    0.27051    0.13787    3.         2.        
 4.0055    -0.76047   -0.046137  -61.358E-6 -61.358E-6 -61.358E-6  3.         2.        
 4.1233    -0.83153   -0.12956   -61.358E-6 -61.358E-6 -61.358E-6  3.         2.        
 4.2019    -0.87255   -0.18416   -61.358E-6 -61.358E-6 -0.13799    3.         2.        
 4.3197    -0.92392   -0.26361   -61.358E-6 -61.358E-6 -0.13799    3.         2.        
 4.3982    -0.95109   -0.31454   -61.358E-6 -0.27062   -0.27062    3.         2.        
 4.516     -0.98081   -0.38701   -61.358E-6 -0.27062   -0.27062    3.         2.        
 4.5946    -0.99308   -0.43235   -61.358E-6 -0.27062   -0.39285    3.         2.        
 4.7124    -0.99999   -0.49512   -61.358E-6 -0.27062   -0.39285    3.         2.        
 4.7909    -0.9969    -0.53315   -0.49998   -0.49998   -0.49998    3.         2.        
 4.9087    -0.98075   -0.58385   -0.49998   -0.49998   -0.49998    3.         2.        
 4.9873    -0.96241   -0.61315   -0.49998   -0.49998   -0.58789    3.         2.        
 5.1051    -0.92382   -0.64986   -0.49998   -0.49998   -0.58789    3.         2.        
 5.1836    -0.89094   -0.66932   -0.49998   -0.65321   -0.65321    3.         2.        
 5.3014    -0.83138   -0.69067   -0.49998   -0.65321   -0.65321    3.         2.        
 5.38      -0.78522   -0.69956   -0.49998   -0.65321   -0.69343    3.         2.        
 5.4978    -0.70699   -0.70474   -0.49998   -0.65321   -0.69343    3.         2.        
 5.5763    -0.64932   -0.70273   -0.707     -0.707     -0.707      3.         2.        
 5.6941    -0.55543   -0.69156   -0.707     -0.707     -0.707      3.         2.        
 5.7727    -0.48848   -0.67875   -0.707     -0.707     -0.69339    3.         2.        
 5.8905    -0.38253   -0.65168   -0.707     -0.707     -0.69339    3.         2.        
 5.969     -0.30885   -0.62856   -0.707     -0.65314   -0.65314    3.         2.        
 6.0868    -0.19492   -0.58665   -0.707     -0.65314   -0.65314    3.         2.        
 6.1654    -0.11736   -0.55412   -0.707     -0.65314   -0.58779    3.         2.        
 6.2832     179.01E-6 -0.49899   -0.707     -0.65314   -0.58779    3.         2.        
 6.3617     0.078639  -0.4583    -0.49984   -0.49984   -0.49984    3.         2.        
 6.4795     0.19527   -0.39207   -0.49984   -0.49984   -0.49984    3.         2.        
 6.5581     0.27162   -0.3448    -0.49984   -0.49984   -0.39269    3.         2.        
 6.6759     0.38286   -0.27003   -0.49984   -0.49984   -0.39269    3.         2.        
 6.7544     0.45416   -0.218     -0.49984   -0.27045   -0.27045    3.         2.        
 6.8722     0.55573   -0.13757   -0.49984   -0.27045   -0.27045    3.         2.        
 6.9508     0.61925   -0.082772  -0.49984   -0.27045   -0.13781    3.         2.        
 7.0686     0.70725    226.76E-6 -0.49984   -0.27045   -0.13781    3.         2.        
 7.1471     0.76053    0.055671   126.56E-6  126.56E-6  126.56E-6  3.         2.        
 7.2649     0.83158    0.13804    126.56E-6  126.56E-6  126.56E-6  3.         2.        
 7.3435     0.87259    0.19201    126.56E-6  126.56E-6  0.13806    3.         2.        
 7.4613     0.92396    0.27058    126.56E-6  126.56E-6  0.13806    3.         2.        
 7.5398     0.95112    0.32099    126.56E-6  0.27068    0.27068    3.         2.        
 7.6576     0.98082    0.39274    126.56E-6  0.27068    0.27068    3.         2.        
 7.7362     0.99309    0.43765    126.56E-6  0.27068    0.3929     3.         2.        
 7.854      0.99999    0.49983    126.56E-6  0.27068    0.3929     3.         2.        
 7.9325     0.99689    0.53751    0.50002    0.50002    0.50002    3.         2.        
 8.0503     0.98074    0.58772    0.50002    0.50002    0.50002    3.         2.        
 8.1289     0.96239    0.61673    0.50002    0.50002    0.58793    3.         2.        
 8.2467     0.92378    0.65304    0.50002    0.50002    0.58793    3.         2.        
 8.3252     0.89089    0.67226    0.50002    0.65324    0.65324    3.         2.        
 8.443      0.83133    0.69327    0.50002    0.65324    0.65324    3.         2.        
 8.5216     0.78516    0.70196    0.50002    0.65324    0.69344    3.         2.        
 8.6394     0.70693    0.70686    0.50002    0.65324    0.69344    3.         2.        
 8.7179     0.64925    0.70469    0.707      0.707      0.707      3.         2.        
 8.8357     0.55536    0.6933     0.707      0.707      0.707      3.         2.        
 8.9143     0.4884     0.68034    0.707      0.707      0.69338    3.         2.        
 9.0321     0.38244    0.65309    0.707      0.707      0.69338    3.         2.        
 9.1106     0.30877    0.62986    0.707      0.65312    0.65312    3.         2.        
 9.2284     0.19483    0.58779    0.707      0.65312    0.65312    3.         2.        
 9.307      0.11727    0.55517    0.707      0.65312    0.58775    3.         2.        
 9.4248    -271.01E-6  0.49991    0.707      0.65312    0.58775    3.         2.        
 9.5033    -0.078731   0.45914    0.4998     0.4998     0.4998     3.         2.        
 9.6211    -0.19536    0.39282    0.4998     0.4998     0.4998     3.         2.        
 9.6997    -0.27171    0.34548    0.4998     0.4998     0.39264    3.         2.        
 9.8175    -0.38294    0.27063    0.4998     0.4998     0.39264    3.         2.        
 9.896     -0.45424    0.21854    0.4998     0.27039    0.27039    3.         2.        
 10.       -0.54426    0.14759    0.4998     0.27039    0.27039    3.         1.        
#Freq       vm(out0)   vm(out1)   vm(out2)   vm(out3)   vp(out0)   vp(out1)   vp(out2)   vp(out3)  
 0.05       0.95403    0.707      0.707      0.707     -17.441    -14.844    -14.844    -14.844    
 0.055      0.94515    0.707      0.707      0.707     -19.064    -16.329    -16.329    -16.329    
 0.0605     0.93474    0.707      0.707      0.707     -20.814    -17.961    -17.961    -17.961    
 0.06655    0.92259    0.707      0.707      0.707     -22.692    -19.758    -19.758    -19.758    
 0.073205   0.9085     0.707      0.707      0.707     -24.701    -21.733    -21.733    -21.733    
 0.080526   0.89229    0.707      0.707      0.707     -26.838    -23.907    -23.907    -23.907    
 0.088578   0.87379    0.707      0.707      0.707     -29.098    -26.297    -26.297    -26.297    
 0.097436   0.85286    0.707      0.707      0.707     -31.476    -28.927    -28.927    -28.927    
 0.10718    0.82945    0.707      0.707      0.707     -33.958    -31.82     -31.82     -31.82     
 0.1179     0.80354    0.707      0.707      0.707     -36.53     -35.002    -35.002    -35.002    
 0.12969    0.77522    0.707      0.707      0.707     -39.175    -38.502    -38.502    -38.502    
 0.14266    0.74465    0.707      0.707      0.707     -41.871    -42.352    -42.352    -42.352    
 0.15692    0.71208    0.707      0.707      0.707     -44.595    -46.587    -46.587    -46.587    
 0.17261    0.67786    0.707      0.707      0.707     -47.323    -51.246    -51.246    -51.246    
 0.18987    0.64238    0.707      0.707      0.707     -50.03     -56.37     -56.37     -56.37     
 0.20886    0.60609    0.707      0.707      0.707     -52.693    -62.007    -62.007    -62.007    
Gnucap   System status
iterations: op=0, dc=0, tran=360, fourier=0, total=496
transient timesteps: accepted=114, rejected=6, total=120
nodes: user=5, subckt=0, model=1, total=6
dctran density=38.9%, ac density=44.4%
