parameter T = 1; 
va_zi #(.n0(1),.d0(1.),.d1(-1.)) b (.out0(0),.out1(out1),.in0(in),.in1(0));
va_zi #(.n0(2),.d0(1.),.d1(1.)) b (.out0(0),.out1(out2),.in0(in),.in1(0));
va_zi #(.n0(1.),.d0(2.)) b (.out0(0),.out1(out3),.in0(in),.in1(0));
vsource #(.dc(1.)) v1 (.p(in),.n(0));
#Time       v(in)      v(out1)    v(out2)    v(out3)    control(0)
 0.         1.         0.         0.         0.         1.        
 0.1        1.         1.         2.         0.5        9.        
 1.         1.         1.         2.         0.5        2.        
 1.1        1.         1.         2.         0.5        7.        
 2.         1.         1.         2.         0.5        2.        
 2.1        1.         2.         0.         0.5        7.        
 3.         1.         2.         0.         0.5        2.        
 3.1        1.         2.         0.         0.5        7.        
 4.         1.         2.         0.         0.5        2.        
 4.1        1.         3.         2.         0.5        7.        
 5.         1.         3.         2.         0.5        2.        
 5.1        1.         3.         2.         0.5        7.        
 6.         1.         3.         2.         0.5        2.        
 6.1        1.         4.         0.         0.5        7.        
 7.         1.         4.        -7.E-15     0.5        2.        
 7.1        1.         4.        -7.E-15     0.5        7.        
 8.         1.         4.        -7.E-15     0.5        2.        
 8.1        1.         5.         2.         0.5        7.        
 9.         1.         5.         2.         0.5        2.        
 9.1        1.         5.         2.         0.5        7.        
 10.        1.         5.         2.         0.5        1.        
Gnucap   System status
iterations: op=0, dc=0, tran=42, fourier=0, total=63
transient timesteps: accepted=21, rejected=0, total=21
nodes: user=4, subckt=0, model=0, total=4
dctran density=25.0%, ac density=62.5%
