#Time       v(1)       v(2)      
 0.         0.         0.        
 498.n      3.129u     1.558p    
 766.n      4.8129u    2.622p    
 1.384u     8.6959u    6.797p    
 1.84u      11.561u    11.415p   
 59.183u    371.86u    11.004n   
 521.26u    0.0032752  853.42n   
 0.0025569  0.016065   20.516u   
 0.0085296  0.053567   227.72u   
 0.021749   0.13623    0.001471  
 0.045041   0.27924    0.0062199 
 0.079147   0.47705    0.018692  
 0.11325    0.65303    0.037013  
 0.16541    0.86206    0.073642  
 0.21758    0.97932    0.1167    
 0.26974    0.99232    0.16088   
 0.3219     0.89968    0.2008    
 0.37406    0.71127    0.23154   
 0.4523     0.29522    0.25199   
 0.53055   -0.19075    0.23695   
 0.60879   -0.63154    0.18815   
 0.73919   -0.9977     0.065393  
 0.80439   -0.94216    18.822u   
 0.8696    -0.7307    -0.052798  
 0.91306   -0.51947   -0.077145  
 0.95653   -0.26973   -0.090651  
 1.         925.32n   -0.092532  
#Freq       v(1)       v(2)      
 0.1        0.99999    0.84673   
 1.         1.         0.15718   
 10.        1.         0.015913  
 100.       1.         0.0015915 
Gnucap   System status
iterations: op=0, dc=0, tran=92, fourier=0, total=127
transient timesteps: accepted=27, rejected=4, total=31
nodes: user=2, subckt=0, model=0, total=2
dctran density=100.0%, ac density=100.0%
