#           v(in)      v(out)     v(s)       iter(0)   
 0.         0.9        0.9        0.9        4.        
#Time       v(in)      v(out)     v(s)       timef(C1)  timef(dut.c1) iter(0)   
 0.         0.         0.         0.         Inf        Inf        3.        
 119.05u    748.u      744.87u    744.87u    253.3u     253.3u     12.       
 238.1u     0.001496   0.0014928  0.0014928  0.0021971  0.0021971  4.        
 433.25u    0.0027222  0.002719   0.002719   0.0012574  0.0012574  4.        
 0.0012573  0.0078997  0.0078966  0.0078966  0.0061962  0.0061962  4.        
 0.0061772  0.038803   0.0388     0.0388     0.040536   0.040536   4.        
 0.02984    0.18639    0.18639    0.18639    0.069615   0.069615   4.        
 0.068646   0.41807    0.41806    0.41806    0.12106    0.12106    4.        
 0.10745    0.62501    0.62501    0.62501    0.1683     0.1683     4.        
 0.16696    0.86693    0.86693    0.86693    0.23782    0.23782    4.        
 0.22646    0.98908    0.98908    0.98908    0.30803    0.30803    4.        
 0.28596    0.97458    0.97458    0.97458    0.38719    0.38719    4.        
 0.37522    0.70614    0.70615    0.70615    0.53341    0.53341    4.        
 0.42728    0.44117    0.44117    0.44117    0.50748    0.50748    8.        
 0.49887    0.0070889  0.0070922  0.0070922  0.55655    0.55655    4.        
 0.57046   -0.4284    -0.4284    -0.4284     0.62375    0.62375    4.        
 0.61819   -0.6762    -0.6762    -0.6762     0.68013    0.68013    4.        
 0.66591   -0.86365   -0.86365   -0.86365    0.73635    0.73635    4.        
 0.71364   -0.97402   -0.97402   -0.97402    0.79465    0.79465    4.        
 0.78523   -0.9756    -0.9756    -0.9756     0.88532    0.88532    4.        
 0.85682   -0.78309   -0.78309   -0.78309    1.0723     1.0723     4.        
 1.        -141.f     -3.53u     -3.53u      1.0806     1.0806     4.        
#Freq       vm(in)     vm(out)    vm(s)      vp(in)     vp(out)    vp(s)     
 1.         1.         1.         1.        -7.2p      -180.u     -180.u     
 2.         1.         1.         1.        -14.4p     -360.u     -360.u     
 4.         1.         1.         1.        -28.8p     -720.u     -720.u     
 8.         1.         1.         1.        -57.6p     -0.00144   -0.00144   
 16.        1.         1.         1.        -115.2p    -0.00288   -0.00288   
Gnucap   System status
iterations: op=0, dc=4, tran=99, fourier=0, total=133
transient timesteps: accepted=22, rejected=3, total=25
nodes: user=3, subckt=0, model=0, total=3
dctran density=77.8%, ac density=77.8%
