dut.c1 tie break: 13 vs. 9
dut.c1 tie break: 9 vs. 12
dut.r1 tie break: 16 vs. 9
dut.r1 tie break: 9 vs. 12
#           v(in)      v(out)     iter(0)   
 0.         0.9        0.9        3.        
#Time       v(in)      v(out)     iter(0)   
 0.         0.         0.         2.        
 497.87n    3.1282u    1.557p     15.       
 995.74n    6.2564u    3.894p     3.        
 1.4936u    9.3846u    7.787p     3.        
 1.9915u    12.513u    13.238p    3.        
 66.412u    417.27u    13.856n    3.        
 565.38u    0.0035523  1.004u     3.        
 0.0027193  0.017085   23.204u    3.        
 0.0089523  0.056219   250.8u     3.        
 0.022528   0.14108    0.0015776  3.        
 0.046369   0.28724    0.006586   3.        
 0.081689   0.49102    0.019863   3.        
 0.11701    0.67072    0.039334   3.        
 0.16895    0.8731     0.076421   3.        
 0.22089    0.98331    0.11954    3.        
 0.27283    0.98972    0.16343    3.        
 0.32477    0.89165    0.20278    3.        
 0.37671    0.69946    0.23279    3.        
 0.45462    0.28127    0.25211    3.        
 0.53253   -0.20299    0.23614    3.        
 0.61044   -0.63957    0.18684    3.        
 0.7403    -0.99813    0.064209   3.        
 0.80522   -0.9404    -780.u      3.        
 0.87015   -0.72832   -0.053199   3.        
 0.91343   -0.51749   -0.077336   3.        
 0.95672   -0.26862   -0.090712   3.        
 1.        -925.58n   -0.092559   3.        
#Freq       vm(in)     vm(out)    vp(in)     vp(out)   
 1.         0.99999    0.15718   -88.935u   -80.957    
 2.         0.99999    0.079326  -45.307u   -85.45     
 4.         0.99999    0.039757  -22.761u   -87.721    
 8.         0.99999    0.01989   -11.394u   -88.86     
 16.        0.99999    0.0099466 -5.6987u   -89.43     
Gnucap   System status
iterations: op=0, dc=3, tran=92, fourier=0, total=131
transient timesteps: accepted=27, rejected=4, total=31
nodes: user=2, subckt=0, model=0, total=2
dctran density=100.0%, ac density=100.0%
