load ../lang_verilog.so 
     ^ ? "../lang_verilog.so": already loaded, replacing
#           v(in)      v(out)     v(s)       iter(0)   
 0.         0.9        0.9        0.9        3.        
#Time       v(in)      v(out)     v(s)       iter(0)   
 0.         0.         0.         0.         2.        
 119.05u    748.u      744.87u    735.64u    9.        
 238.1u     0.001496   0.0014928  0.0014832  3.        
 433.25u    0.0027222  0.002719   0.0027098  3.        
 964.08u    0.0060575  0.0060543  0.0060447  3.        
 0.0027513  0.017286   0.017283   0.017273   3.        
 0.0081128  0.050952   0.050949   0.05094    3.        
 0.027188   0.16999    0.16999    0.16998    3.        
 0.064603   0.39486    0.39486    0.39485    3.        
 0.10202    0.598      0.598      0.59799    3.        
 0.15814    0.83802    0.83802    0.83801    3.        
 0.21427    0.9749     0.9749     0.9749     3.        
 0.27039    0.9918     0.9918     0.99181    3.        
 0.36159    0.7641     0.7641     0.76411    3.        
 0.43253    0.41136    0.41137    0.41138    6.        
 0.50346   -0.02174   -0.021737  -0.021727   3.        
 0.57439   -0.4506    -0.45059   -0.45059    3.        
 0.6276    -0.71854   -0.71854   -0.71853    3.        
 0.6808    -0.90695   -0.90694   -0.90694    3.        
 0.734     -0.99495   -0.99495   -0.99495    3.        
 0.8005    -0.95009   -0.95009   -0.95009    3.        
 0.90025   -0.58652   -0.58652   -0.58653    3.        
 1.        -132.f     -3.2722u   -13.22u     3.        
#Freq       vm(in)     vm(out)    vm(s)      vp(in)     vp(out)    vp(s)     
 1.         1.         1.         1.        -7.2p      -180.u     -720.u     
 2.         1.         1.         1.        -14.4p     -360.u     -0.00144   
 4.         1.         1.         1.        -28.8p     -720.u     -0.00288   
 8.         1.         1.         1.        -57.6p     -0.00144   -0.00576   
 16.        1.         1.         1.        -115.2p    -0.00288   -0.01152   
Gnucap   System status
iterations: op=0, dc=3, tran=77, fourier=0, total=111
transient timesteps: accepted=23, rejected=3, total=26
nodes: user=3, subckt=0, model=1, total=4
dctran density=75.0%, ac density=75.0%
