m.D1 ambiguous overload in diode
#           v(m)       v(n)       i(V1)      region(m.D1) iter(0)   
 0.         0.         0.         0.         0.         0.        
-1.        -54.129p   -1.4        0.        -1.         1.        
-2.        -1.p       -1.4        0.        -1.         2.        
-1.4       -1.p       -1.4        0.        -1.         3.        
 0.        -1.p       -1.4        0.        -1.         0.        
-1.        -1.p       -0.7        0.        -1.         1.        
-2.        -1.p       -0.7        0.        -1.         2.        
-0.7       -1.p       -0.7        0.        -1.         3.        
 0.        -1.p       -0.7        0.        -1.         0.        
-1.        -1.p        0.         0.        -1.         1.        
-2.         0.         0.        -1.f        0.         2.        
 0.         0.         0.        -1.f       -1.         3.        
 0.         0.         0.        -1.f       -1.         0.        
-1.         27.064p    0.7        0.        -1.         1.        
-2.         693.03p    0.7        0.         1.         2.        
-3.         14.936n    0.7        0.         1.         3.        
-4.         275.63n    0.7        0.         1.         4.        
-5.         4.2826u    0.7        0.         1.         5.        
-6.         54.784u    0.7       -54.803n    1.         6.        
-7.         560.1u     0.7       -560.12n    1.         7.        
-8.         0.0043424  0.7       -4.3424u    1.         8.        
-9.         0.021836   0.7       -21.836u    1.         9.        
-10.        0.05041    0.7       -50.41u     1.         10.       
-11.        0.058478   0.7       -58.478u    1.         11.       
-12.        0.058685   0.7       -58.686u    1.         12.       
-13.        0.058686   0.7       -58.686u    1.         13.       
-14.        0.058686   0.7       -58.686u    1.         14.       
 0.7        0.058686   0.7       -58.686u    1.         15.       
#Freq       v(m)       v(n)      
 1.         0.6941     1.        
 10.        0.6941     1.        
 100.       0.6941     1.        
 1.K        0.6941     1.        
 10.K       0.6948     1.        
 100.K      0.75136    1.        
 1.Meg      0.98697    1.        
Gnucap   System status
iterations: op=0, dc=24, tran=0, fourier=0, total=31
transient timesteps: accepted=0, rejected=0, total=0
nodes: user=2, subckt=0, model=2, total=4
dctran density=100.0%, ac density=100.0%
