#Time       v(1)       v(2)      
 0.         0.         0.        
 482.25n    3.0301u    1.461p    
 759.47n    4.7719u    2.543p    
 1.3647u    8.5744u    6.581p    
 1.8222u    11.449u    11.162p   
 58.431u    367.13u    10.726n   
 516.7u     0.0032465  838.54n   
 0.002544   0.015984   20.311u   
 0.0084813  0.053264   225.15u   
 0.021702   0.13593    0.0014646 
 0.044994   0.27896    0.0062072 
 0.079102   0.4768     0.018671  
 0.11321    0.65283    0.036987  
 0.16537    0.86193    0.07361   
 0.21754    0.97927    0.11667   
 0.2697     0.99235    0.16086   
 0.32187    0.89977    0.20077   
 0.37403    0.7114     0.23152   
 0.45228    0.29538    0.25199   
 0.53052   -0.19061    0.23696   
 0.60877   -0.63145    0.18817   
 0.73918   -0.99769    0.065406  
 0.80438   -0.94218    27.93u    
 0.86959   -0.73073   -0.052793  
 0.91306   -0.5195    -0.077143  
 0.95653   -0.26975   -0.09065   
 1.         925.32n   -0.092532  
#Freq       v(1)       v(2)      
 0.1        0.99999    0.84673   
 1.         1.         0.15718   
 10.        1.         0.015913  
 100.       1.         0.0015915 
Gnucap   System status
iterations: op=0, dc=0, tran=93, fourier=0, total=128
transient timesteps: accepted=27, rejected=4, total=31
nodes: user=2, subckt=0, model=0, total=2
dctran density=100.0%, ac density=100.0%
