>>>>>module main(n, g) 
>>>>>spice 
>>>>>.model dd d cjo=1pf is=1e-15 
>>>>>.parameter v=0 
>>>>>.print dc v(nodes) i(V1) i(V2) z(m.D1) iter(0) 
main.D1: diode from device_dispatcher
main.D1: diode:0 from device_dispatcher
main.D1 discarded: no match: tf
main.D1: diode:1 from device_dispatcher
main.D1: diode:2 from device_dispatcher
main.D1: 3 candidates found for diode
m.D1 tie break: 38 vs. 36
m.D1 ambiguous overload in diode
>>>>>.dc v -1 0.65 .05 
#           v(n)       v(n2)      i(V1)      i(V2)      z(m.D1)    iter(0)   
-1.        -1.        -1.         0.         0.         ??         4.        
-0.95      -0.95      -0.95       0.         0.         ??         4.        
-0.9       -0.9       -0.9        0.         0.         ??         4.        
-0.85      -0.85      -0.85       0.         0.         ??         4.        
-0.8       -0.8       -0.8        0.         0.         ??         4.        
-0.75      -0.75      -0.75       0.         0.         ??         4.        
-0.7       -0.7       -0.7        0.         0.         ??         4.        
-0.65      -0.65      -0.65       0.         0.         ??         4.        
-0.6       -0.6       -0.6        0.         0.         ??         4.        
-0.55      -0.55      -0.55       0.         0.         ??         4.        
-0.5       -0.5       -0.5        0.         0.         ??         4.        
-0.45      -0.45      -0.45       0.         0.         ??         4.        
-0.4       -0.4       -0.4        0.         0.         ??         4.        
-0.35      -0.35      -0.35       0.         0.         ??         4.        
-0.3       -0.3       -0.3        0.         0.         ??         4.        
-0.25      -0.25      -0.25       0.         0.         ??         4.        
-0.2       -0.2       -0.2        0.         0.         ??         4.        
-0.15      -0.15      -0.15       0.         0.         ??         4.        
-0.1       -0.1       -0.1        0.         0.         ??         4.        
-0.05      -0.05      -0.05       0.         0.         ??         4.        
 0.         0.         0.        -575.6E-18 -575.6E-18  ??         4.        
 0.05       0.05       0.05       0.         0.         ??         4.        
 0.1        0.1        0.1        0.         0.         ??         4.        
 0.15       0.15       0.15       0.         0.         ??         6.        
 0.2        0.2        0.2        0.         0.         ??         7.        
 0.25       0.25       0.25       0.         0.         ??         7.        
 0.3        0.3        0.3        0.         0.         ??         7.        
 0.35       0.35       0.35       0.         0.         ??         7.        
 0.4        0.4        0.4       -5.2096n   -5.2023n    ??         7.        
 0.45       0.45       0.45      -35.98n    -35.98n     ??         7.        
 0.5        0.5        0.5       -248.71n   -248.71n    ??         7.        
 0.55       0.55       0.55      -1.7189u   -1.7189u    ??         7.        
 0.6        0.6        0.6       -11.88u    -11.88u     ??         7.        
 0.65       0.65       0.65      -82.106u   -82.106u    ??         7.        
>>>>>.status notime 
Gnucap   System status
iterations: op=0, dc=168, tran=0, fourier=0, total=168
transient timesteps: accepted=0, rejected=0, total=0
nodes: user=2, subckt=0, model=2, total=4
dctran density=75.0%, ac density=75.0%
