#           v(in)      v(out)     v(s)       iter(0)   
 0.         0.9        0.9        0.9        4.        
#Time       v(in)      v(out)     v(s)       timef(C1)  timef(dut.c1) iter(0)   
 0.         0.         0.         0.         Inf        Inf        3.        
 133.77u    840.5u     837.37u    837.37u    267.96u    267.96u    12.       
 267.54u    0.001681   0.0016779  0.0016779  0.0024674  0.0024674  4.        
 486.83u    0.0030588  0.0030557  0.0030557  0.0014121  0.0014121  4.        
 0.0014114  0.0088683  0.0088651  0.0088651  0.0071351  0.0071351  4.        
 0.0071177  0.044707   0.044704   0.044704   0.036689   0.036689   4.        
 0.032576   0.20326    0.20325    0.20325    0.07355    0.07355    4.        
 0.072886   0.44211    0.44211    0.44211    0.12633    0.12633    4.        
 0.11319    0.65276    0.65276    0.65276    0.1751     0.1751     4.        
 0.17232    0.88322    0.88322    0.88322    0.24409    0.24409    4.        
 0.23144    0.9932     0.9932     0.9932     0.31425    0.31425    4.        
 0.29056    0.96771    0.96771    0.96771    0.3953     0.3953     4.        
 0.39191    0.62816    0.62816    0.62816    0.52763    0.52763    4.        
 0.49325    0.042372   0.042376   0.042376   0.56511    0.56511    4.        
 0.5566    -0.34816   -0.34816   -0.34816    0.60783    0.60783    4.        
 0.61994   -0.68428   -0.68427   -0.68427    0.68204    0.68204    4.        
 0.68328   -0.91342   -0.91342   -0.91342    0.75515    0.75515    4.        
 0.74663   -0.99978   -0.99978   -0.99978    0.83078    0.83078    4.        
 0.80997   -0.92985   -0.92985   -0.92985    0.92647    0.92647    4.        
 0.90499   -0.56216   -0.56216   -0.56216    1.0178     1.0178     4.        
 1.        -130.f     -3.2606u   -3.2606u    1.0668     1.0668     4.        
#Freq       vm(in)     vm(out)    vm(s)      vp(in)     vp(out)    vp(s)     
 1.         1.         1.         1.        -7.2p      -180.u     -180.u     
 2.         1.         1.         1.        -14.4p     -360.u     -360.u     
 4.         1.         1.         1.        -28.8p     -720.u     -720.u     
 8.         1.         1.         1.        -57.6p     -0.00144   -0.00144   
 16.        1.         1.         1.        -115.2p    -0.00288   -0.00288   
Gnucap   System status
iterations: op=0, dc=4, tran=91, fourier=0, total=123
transient timesteps: accepted=21, rejected=2, total=23
nodes: user=3, subckt=0, model=0, total=3
dctran density=77.8%, ac density=77.8%
